  can0  0CF00417   [8]  FF FF FF DC 15 FF FF FF
  can0  0B0BB241   [8]  22 09 27 00 09 90 01 C0
  can0  0B0BB341   [8]  00 00 00 00 00 00 00 00
  can0  0CF00417   [8]  FF FF FF DC 15 FF FF FF
  can0  0CF00317   [8]  FF FF 20 FF FF FF FF FF
  can0  0B0BB241   [8]  12 09 27 00 09 90 01 C0
  can0  0B0BB541   [8]  01 01 00 00 00 00 00 00
  can0  0CF00417   [8]  FF FF FF C9 15 FF FF FF
  can0  0B0BB341   [8]  00 00 00 00 00 00 00 00
  can0  18FEF117   [8]  F7 00 00 FF FF FF FF FF
  can0  18FEF217   [8]  8D 00 FF FF FF FF FF FF
  can0  18FFAC17   [8]  02 16 80 51 FF FF FF 01
  can0  18FFAD17   [8]  03 FA 09 00 00 00 00 FF
  can0  0B0BB241   [8]  22 09 27 00 09 90 01 C0
  can0  0CF00417   [8]  FF FF FF C9 15 FF FF FF
  can0  0B0BB241   [8]  23 09 27 00 09 90 01 C0
  can0  0B0BB341   [8]  00 00 00 00 00 00 00 00
  can0  0CF00417   [8]  FF FF FF C9 15 FF FF FF
  can0  0CF00317   [8]  FF FF 20 FF FF FF FF FF
  can0  0B0BB241   [8]  23 09 27 00 09 90 01 C0
  can0  0CF00417   [8]  FF FF FF C0 15 FF FF FF
  can0  0B0BB341   [8]  00 00 00 00 00 00 00 00
  can0  0B0BB241   [8]  23 09 27 00 09 90 01 C0
  can0  0CF00417   [8]  FF FF FF C9 15 FF FF FF
  can0  0CF00317   [8]  FF FF 20 FF FF FF FF FF
  can0  0B0BB241   [8]  23 09 27 00 09 90 01 C0
  can0  0B0BB541   [8]  01 01 00 00 00 00 00 00
  can0  0B0BB341   [8]  00 00 00 00 00 00 00 00
  can0  0CF00417   [8]  FF FF FF C9 15 FF FF FF
  can0  18FFAC17   [8]  02 16 80 51 FF FF FF 01
  can0  18FEF117   [8]  F7 00 00 FF FF FF FF FF
  can0  18FEF217   [8]  93 00 FF FF FF FF FF FF
  can0  18FFAD17   [8]  00 13 CA 00 00 18 0C 06
  can0  0B0BB241   [8]  23 09 27 00 09 90 01 C0
  can0  0CF00417   [8]  FF FF FF D3 15 FF FF FF
  can0  0B0BB341   [8]  00 00 00 00 00 00 00 00
  can0  0B0BB241   [8]  23 09 27 00 09 90 01 C0
  can0  0CF00417   [8]  FF FF FF C0 15 FF FF FF
  can0  0CF00317   [8]  FF FF 20 FF FF FF FF FF
  can0  0B0BB241   [8]  23 09 27 00 09 90 01 C0
  can0  0B0BB341   [8]  00 00 00 00 00 00 00 00
  can0  0CF00417   [8]  FF FF FF C0 15 FF FF FF
  can0  0B0BB241   [8]  23 09 27 00 09 90 01 C0
  can0  0CF00417   [8]  FF FF FF BB 15 FF FF FF
  can0  0CF00317   [8]  FF FF 23 FF FF FF FF FF
  can0  18FEE841   [8]  FF FF 00 00 FF FF F7 4E
  can0  0B0BB241   [8]  23 09 27 00 09 90 01 C0
  can0  0B0BB541   [8]  01 01 00 00 00 00 00 00
  can0  19FA0341   [8]  9E FF 32 00 50 00 5A 00
  can0  0B0BB341   [8]  00 00 00 00 00 00 00 00
  can0  0CF00417   [8]  FF FF FF B1 15 FF FF FF
  can0  18FFAC17   [8]  02 16 80 51 FF FF FF 01
  can0  18FECA17   [8]  C3 FF FF FF FF FF FF FF
  can0  18FEE717   [8]  64 00 00 00 FF FF FF FF
  can0  18FEF117   [8]  F7 00 00 FF FF FF FF FF
  can0  18FEF217   [8]  92 00 FF FF FF FF FF FF
  can0  18FEF517   [8]  FF FF FF 80 25 FF FF FF
  can0  18FEFC17   [8]  FF 3D FF FF FF FF FF FF
  can0  18FFAD17   [8]  01 00 00 00 00 0A 02 1C
  can0  0B0BB241   [8]  23 09 27 00 09 90 01 C0
  can0  0CF00417   [8]  FF FF FF B6 15 FF FF FF
  can0  0B0BB341   [8]  00 00 00 00 00 00 00 00
  can0  0B0BB241   [8]  23 09 27 00 09 90 01 C0
  can0  0CF00417   [8]  FF FF FF B6 15 FF FF FF
  can0  0CF00317   [8]  FF FF 23 FF FF FF FF FF
  can0  0B0BB241   [8]  23 09 27 00 09 90 01 C0
  can0  0B0BB341   [8]  00 00 00 00 00 00 00 00
  can0  0CF00417   [8]  FF FF FF B6 15 FF FF FF
  can0  0B0BB241   [8]  13 09 27 00 09 90 01 C0
  can0  0CF00417   [8]  FF FF FF CE 15 FF FF FF
  can0  0B0BB341   [8]  00 00 00 00 00 00 00 00
  can0  0CF00317   [8]  FF FF 20 FF FF FF FF FF
  can0  0B0BB241   [8]  13 09 27 00 09 90 01 C0
  can0  0B0BB541   [8]  01 01 00 00 00 00 00 00
  can0  0CF00417   [8]  FF FF FF CE 15 FF FF FF
  can0  18FFAC17   [8]  02 16 80 51 FF FF FF 01
  can0  18FEF117   [8]  F7 00 00 FF FF FF FF FF
  can0  18FEF217   [8]  97 00 FF FF FF FF FF FF
  can0  18FFAD17   [8]  02 00 00 E9 7F FA 7F 04
  can0  0B0BB241   [8]  23 09 27 00 09 90 01 C0
  can0  0B0BB341   [8]  00 00 00 00 00 00 00 00
  can0  0CF00417   [8]  FF FF FF EB 15 FF FF FF
  can0  0B0BB241   [8]  13 09 27 00 09 90 01 C0
  can0  0CF00417   [8]  FF FF FF F4 15 FF FF FF
  can0  0B0BB341   [8]  00 00 00 00 00 00 00 00
  can0  0CF00317   [8]  FF FF 1E FF FF FF FF FF
  can0  0B0BB241   [8]  23 09 27 00 09 90 01 C0
  can0  19FA0441   [8]  C0 03 FF FF 00 FF FF FF
  can0  0CF00417   [8]  FF FF FF F4 15 FF FF FF
  can0  0B0BB241   [8]  23 09 27 00 09 90 01 C0
  can0  0B0BB441   [8]  01 01 06 0A 0A 6A 38 27
  can0  0B0BB341   [8]  00 00 00 00 00 00 00 00
  can0  0B0BB441   [8]  01 01 06 0A 0A 6A 38 27
  can0  0B0BB441   [8]  01 01 06 0A 0A 6A 38 27
  can0  0CF00417   [8]  FF FF FF FE 15 FF FF FF
  can0  0CF00317   [8]  FF FF 1E FF FF FF FF FF
  can0  0B0BB441   [8]  01 01 06 0A 0A 6A 38 27
  can0  0B0BB241   [8]  13 09 27 00 09 90 01 C0
  can0  0B0BB541   [8]  01 01 00 00 00 00 00 00
  can0  0B0BB441   [8]  01 01 06 0A 0A 6A 38 27
  can0  0B0BB441   [8]  01 01 06 0A 0A 6A 38 27
  can0  0B0BB441   [8]  01 01 06 0A 0A 6A 38 27
  can0  0CF00417   [8]  FF FF FF FE 15 FF FF FF
  can0  0B0BB341   [8]  00 00 00 00 00 00 00 00
  can0  18FEF117   [8]  F7 00 00 FF FF FF FF FF
  can0  18FEF217   [8]  91 00 FF FF FF FF FF FF
  can0  18FFAC17   [8]  02 16 80 51 FF FF FF 01
  can0  18FFAD17   [8]  03 FA 09 00 00 00 00 FF
  can0  0B0BB241   [8]  23 09 27 00 09 90 01 C0
  can0  0B0BB441   [8]  01 01 06 0A 0A 6A 38 27
  can0  0B0BB441   [8]  01 01 06 0A 0A 6A 38 27
  can0  0B0BB441   [8]  01 01 06 0A 0A 6A 38 27
  can0  0CF00417   [8]  FF FF FF F0 15 FF FF FF
  can0  19FF2941   [8]  AA 05 FF FF FF FF FF FF
  can0  0B0BB441   [8]  01 01 06 0A 0A 6A 38 27
  can0  18FEE641   [8]  80 02 03 0C 18 27 FF F9
  can0  18FEF341   [8]  A5 05 7E 79 D9 DC E9 BC
  can0  0B0BB241   [8]  12 09 27 00 09 90 01 C0
  can0  0B0BB341   [8]  00 00 00 00 00 00 00 00
  can0  0B0BB441   [8]  01 01 06 0A 0A 6A 38 27
  can0  0B0BB441   [8]  01 01 06 0A 0A 6A 38 27
  can0  18FEE641   [8]  80 02 03 0C 18 27 FF F9
  can0  18FEF341   [8]  A5 05 7E 79 D9 DC E9 BC
  can0  19FF2941   [8]  AA 05 FF FF FF FF FF FF
  can0  0B0BB441   [8]  01 01 06 0A 0A 6A 38 27
  can0  0B0BB441   [8]  01 01 06 0A 0A 6A 38 27
  can0  0CF00417   [8]  FF FF FF F0 15 FF FF FF
  can0  0CF00317   [8]  FF FF 20 FF FF FF FF FF
  can0  0B0BB241   [8]  12 09 27 00 09 90 01 C0
  can0  0B0BB441   [8]  01 01 06 0A 0A 6A 38 27
  can0  0B0BB441   [8]  01 01 06 0A 0A 6A 38 27
  can0  0CF00417   [8]  FF FF FF DC 15 FF FF FF
  can0  0B0BB341   [8]  00 00 00 00 00 00 00 00
  can0  0B0BB441   [8]  01 01 06 0A 0A 6A 38 27
  can0  0B0BB441   [8]  01 01 06 0A 0A 6A 38 27
  can0  0B0BB241   [8]  22 09 27 00 09 90 01 C0
  can0  0B0BB441   [8]  01 01 06 0A 0A 6A 38 27
  can0  0B0BB441   [8]  01 01 06 0A 0A 6A 38 27
  can0  0CF00417   [8]  FF FF FF E1 15 FF FF FF
  can0  0CF00317   [8]  FF FF 1F FF FF FF FF FF
  can0  0B0BB241   [8]  12 09 27 00 09 90 01 C0
  can0  0B0BB541   [8]  01 01 00 00 00 00 00 00
  can0  0B0BB341   [8]  00 00 00 00 00 00 00 00
  can0  0CF00417   [8]  FF FF FF E1 15 FF FF FF
  can0  18FFAC17   [8]  02 16 80 51 FF FF FF 00
  can0  18FEF117   [8]  F7 00 00 FF FF FF FF FF
  can0  18FEF217   [8]  8F 00 FF FF FF FF FF FF
  can0  18FFAD17   [8]  00 14 CA 00 00 18 0C 06
  can0  0B0BB241   [8]  22 09 27 00 09 90 01 C0
  can0  0CF00417   [8]  FF FF FF E1 15 FF FF FF
  can0  0B0BB341   [8]  00 00 00 00 00 00 00 00
  can0  0B0BB241   [8]  22 09 27 00 09 90 01 C0
  can0  0CF00417   [8]  FF FF FF F0 15 FF FF FF
  can0  0CF00317   [8]  FF FF 1F FF FF FF FF FF
  can0  0B0BB241   [8]  12 09 27 00 09 90 01 C0
  can0  0B0BB341   [8]  00 00 00 00 00 00 00 00
  can0  0CF00417   [8]  FF FF FF F0 15 FF FF FF
  can0  0B0BB241   [8]  22 09 27 00 09 90 01 C0
  can0  0CF00417   [8]  FF FF FF EB 15 FF FF FF
  can0  0B0BB341   [8]  00 00 00 00 00 00 00 00
  can0  0CF00317   [8]  FF FF 1F FF FF FF FF FF
  can0  0B0BB241   [8]  12 09 27 00 09 90 01 C0
  can0  0B0BB541   [8]  01 01 00 00 00 00 00 00
  can0  0CF00417   [8]  FF FF FF E1 15 FF FF FF
  can0  18FFAC17   [8]  02 16 80 51 FF FF FF 00
  can0  18FEF117   [8]  F7 00 00 FF FF FF FF FF
  can0  18FEF217   [8]  91 00 FF FF FF FF FF FF
  can0  18FFAD17   [8]  01 00 00 00 00 0A 02 1C
  can0  0B0BB241   [8]  12 09 27 00 09 90 01 C0
  can0  0B0BB341   [8]  00 00 00 00 00 00 00 00
  can0  0CF00417   [8]  FF FF FF DC 15 FF FF FF
  can0  0B0BB241   [8]  22 09 27 00 09 90 01 C0
  can0  0CF00417   [8]  FF FF FF DC 15 FF FF FF
  can0  0B0BB341   [8]  00 00 00 00 00 00 00 00
  can0  0CF00317   [8]  FF FF 20 FF FF FF FF FF
  can0  0B0BB241   [8]  12 09 27 00 09 90 01 C0
  can0  0CF00417   [8]  FF FF FF C9 15 FF FF FF
  can0  0B0BB241   [8]  22 09 27 00 09 90 01 C0
  can0  0B0BB341   [8]  00 00 00 00 00 00 00 00
  can0  0CF00417   [8]  FF FF FF C4 15 FF FF FF
  can0  0CF00317   [8]  FF FF 20 FF FF FF FF FF
  can0  18FEE841   [8]  FF FF 00 00 FF FF F7 4E
  can0  0B0BB241   [8]  22 09 27 00 09 90 01 C0
  can0  0B0BB541   [8]  01 01 00 00 00 00 00 00
  can0  0CF00417   [8]  FF FF FF C4 15 FF FF FF
  can0  0B0BB341   [8]  00 00 00 00 00 00 00 00
  can0  18FEF117   [8]  F7 00 00 FF FF FF FF FF
  can0  18FEF217   [8]  91 00 FF FF FF FF FF FF
  can0  18FFAC17   [8]  02 16 80 51 FF FF FF 00
  can0  18FFAD17   [8]  02 00 00 E9 7F FA 7F 04
  can0  0B0BB241   [8]  12 09 27 00 09 90 01 C0
  can0  0CF00417   [8]  FF FF FF C9 15 FF FF FF
  can0  0B0BB241   [8]  22 09 27 00 09 90 01 C0
  can0  0B0BB341   [8]  00 00 00 00 00 00 00 00
  can0  0CF00417   [8]  FF FF FF D3 15 FF FF FF
  can0  0CF00317   [8]  FF FF 20 FF FF FF FF FF
  can0  0B0BB241   [8]  12 09 27 00 09 90 01 C0
  can0  0CF00417   [8]  FF FF FF D3 15 FF FF FF
  can0  0B0BB341   [8]  00 00 00 00 00 00 00 00
  can0  0B0BB241   [8]  12 09 27 00 09 90 01 C0
  can0  0CF00417   [8]  FF FF FF D8 15 FF FF FF
  can0  0CF00317   [8]  FF FF 20 FF FF FF FF FF
  can0  0B0BB241   [8]  22 09 27 00 09 90 01 C0
  can0  0B0BB541   [8]  01 01 00 00 00 00 00 00
  can0  0B0BB341   [8]  00 00 00 00 00 00 00 00
  can0  0CF00417   [8]  FF FF FF D8 15 FF FF FF
  can0  18FFAC17   [8]  02 16 80 51 FF FF FF 01
  can0  18FEF117   [8]  F7 00 00 FF FF FF FF FF
  can0  18FEF217   [8]  94 00 FF FF FF FF FF FF
  can0  18FFAD17   [8]  03 FA 09 00 00 00 00 FF
  can0  0B0BB241   [8]  12 09 27 00 09 90 01 C0
  can0  0CF00417   [8]  FF FF FF C4 15 FF FF FF
  can0  0B0BB341   [8]  00 00 00 00 00 00 00 00
  can0  0B0BB241   [8]  22 09 27 00 09 90 01 C0
  can0  0CF00417   [8]  FF FF FF C4 15 FF FF FF
  can0  0CF00317   [8]  FF FF 23 FF FF FF FF FF
  can0  0B0BB241   [8]  22 09 27 00 09 90 01 C0
  can0  0B0BB341   [8]  00 00 00 00 00 00 00 00
  can0  0CF00417   [8]  FF FF FF BB 15 FF FF FF
  can0  0B0BB241   [8]  12 09 27 00 09 90 01 C0
  can0  0CF00417   [8]  FF FF FF B6 15 FF FF FF
  can0  0B0BB341   [8]  00 00 00 00 00 00 00 00
  can0  0CF00317   [8]  FF FF 23 FF FF FF FF FF
  can0  0B0BB241   [8]  22 09 27 00 09 90 01 C0
  can0  0B0BB541   [8]  01 01 00 00 00 00 00 00
  can0  0CF00417   [8]  FF FF FF B6 15 FF FF FF
  can0  18FFAC17   [8]  02 16 80 51 FF FF FF 01
  can0  18FEF117   [8]  F7 00 00 FF FF FF FF FF
  can0  18FEF217   [8]  96 00 FF FF FF FF FF FF
  can0  18FFAD17   [8]  00 15 CA 00 00 18 0C 06
  can0  0B0BB241   [8]  12 09 27 00 09 90 01 C0
  can0  0B0BB341   [8]  00 00 00 00 00 00 00 00
  can0  0CF00417   [8]  FF FF FF B1 15 FF FF FF
  can0  0B0BB241   [8]  12 09 27 00 09 90 01 C0
  can0  0CF00417   [8]  FF FF FF BB 15 FF FF FF
  can0  0B0BB341   [8]  00 00 00 00 00 00 00 00
  can0  0CF00317   [8]  FF FF 23 FF FF FF FF FF
  can0  0B0BB241   [8]  22 09 27 00 09 90 01 C0
  can0  0CF00417   [8]  FF FF FF BB 15 FF FF FF
  can0  0B0BB241   [8]  12 09 27 00 09 90 01 C0
  can0  0B0BB341   [8]  00 00 00 00 00 00 00 00
  can0  0CF00417   [8]  FF FF FF C9 15 FF FF FF
  can0  0CF00317   [8]  FF FF 23 FF FF FF FF FF
  can0  0B0BB241   [8]  22 09 27 00 09 90 01 C0
  can0  0B0BB541   [8]  01 01 00 00 00 00 00 00
  can0  0CF00417   [8]  FF FF FF E1 15 FF FF FF
  can0  0B0BB341   [8]  00 00 00 00 00 00 00 00
  can0  18FEF117   [8]  F7 00 00 FF FF FF FF FF
  can0  18FEF217   [8]  99 00 FF FF FF FF FF FF
  can0  18FFAC17   [8]  02 16 80 51 FF FF FF 01
  can0  18FFAD17   [8]  01 00 00 00 00 0A 02 1D
  can0  0B0BB241   [8]  22 09 27 00 09 90 01 C0
  can0  0CF00417   [8]  FF FF FF E1 15 FF FF FF
  can0  0B0BB241   [8]  12 09 27 00 09 90 01 C0
  can0  0B0BB341   [8]  00 00 00 00 00 00 00 00
  can0  0CF00417   [8]  FF FF FF F0 15 FF FF FF
  can0  0CF00317   [8]  FF FF 1E FF FF FF FF FF
  can0  0B0BB241   [8]  22 09 27 00 09 90 01 C0
  can0  0CF00417   [8]  FF FF FF FE 15 FF FF FF
  can0  0B0BB341   [8]  00 00 00 00 00 00 00 00
  can0  0B0BB241   [8]  12 09 27 00 09 90 01 C0
  can0  0CF00417   [8]  FF FF FF 03 16 FF FF FF
  can0  0CF00317   [8]  FF FF 1E FF FF FF FF FF
  can0  0B0BB241   [8]  12 09 27 00 09 90 01 C0
  can0  0B0BB541   [8]  01 01 00 00 00 00 00 00
  can0  0B0BB341   [8]  00 00 00 00 00 00 00 00
  can0  0CF00417   [8]  FF FF FF 03 16 FF FF FF
  can0  18FFAC17   [8]  02 16 80 51 FF FF FF 01
  can0  18FEF117   [8]  F7 00 00 FF FF FF FF FF
  can0  18FEF217   [8]  93 00 FF FF FF FF FF FF
  can0  18FFAD17   [8]  02 00 00 E9 7F FA 7F 04
  can0  0B0BB241   [8]  22 09 27 00 09 90 01 C0
  can0  0CF00417   [8]  FF FF FF FE 15 FF FF FF
  can0  0B0BB341   [8]  00 00 00 00 00 00 00 00
  can0  0B0BB241   [8]  12 09 27 00 09 90 01 C0
  can0  0CF00417   [8]  FF FF FF F9 15 FF FF FF
  can0  0CF00317   [8]  FF FF 1E FF FF FF FF FF
  can0  0B0BB241   [8]  22 09 27 00 00 90 01 C0
  can0  0B0BB341   [8]  00 00 00 00 00 00 00 00
  can0  0CF00417   [8]  FF FF FF F9 15 FF FF FF
  can0  0B0BB241   [8]  22 09 27 00 00 90 01 C0
  can0  0CF00417   [8]  FF FF FF E6 15 FF FF FF
  can0  0B0BB341   [8]  00 00 00 00 00 00 00 00
  can0  0CF00317   [8]  FF FF 20 FF FF FF FF FF
  can0  18FEE841   [8]  FF FF 00 00 FF FF F7 4E
  can0  0B0BB241   [8]  12 09 27 00 02 90 01 C0
  can0  0B0BB541   [8]  01 01 00 00 00 00 00 00
  can0  19FA0341   [8]  9F FF 32 00 50 00 5A 00
  can0  0CF00417   [8]  FF FF FF DC 15 FF FF FF
  can0  18FFAC17   [8]  02 16 80 51 FF FF FF 00
  can0  18FECA17   [8]  C3 FF FF FF FF FF FF FF
  can0  18FEE717   [8]  64 00 00 00 FF FF FF FF
  can0  18FEF117   [8]  F7 00 00 FF FF FF FF FF
  can0  18FEF217   [8]  8E 00 FF FF FF FF FF FF
  can0  18FEF517   [8]  FF FF FF 80 25 FF FF FF
  can0  18FEFC17   [8]  FF 3D FF FF FF FF FF FF
  can0  18FFAD17   [8]  03 FA 09 00 00 00 00 FF
  can0  0B0BB241   [8]  22 09 27 00 09 90 01 C0
  can0  0B0BB341   [8]  00 00 00 00 00 00 00 00
  can0  0CF00417   [8]  FF FF FF E6 15 FF FF FF
  can0  0B0BB241   [8]  12 09 27 00 09 90 01 C0
  can0  0CF00417   [8]  FF FF FF E6 15 FF FF FF
  can0  0B0BB341   [8]  00 00 00 00 00 00 00 00
  can0  0CF00317   [8]  FF FF 20 FF FF FF FF FF
  can0  0B0BB241   [8]  12 09 27 00 09 90 01 C0
  can0  0CF00417   [8]  FF FF FF DC 15 FF FF FF
  can0  0B0BB241   [8]  22 09 27 00 09 90 01 C0
  can0  0B0BB341   [8]  00 00 00 00 00 00 00 00
  can0  0CF00417   [8]  FF FF FF E1 15 FF FF FF
  can0  0CF00317   [8]  FF FF 1F FF FF FF FF FF
  can0  0B0BB241   [8]  12 09 27 00 09 90 01 C0
  can0  0B0BB541   [8]  01 01 00 00 00 00 00 00
  can0  0CF00417   [8]  FF FF FF E1 15 FF FF FF
  can0  0B0BB341   [8]  00 00 00 00 00 00 00 00
  can0  18FEF117   [8]  F7 00 00 FF FF FF FF FF
  can0  18FEF217   [8]  91 00 FF FF FF FF FF FF
  can0  18FFAC17   [8]  02 16 80 51 FF FF FF 00
  can0  18FFAD17   [8]  00 16 CA 00 00 18 0C 06
  can0  0B0BB241   [8]  22 09 27 00 09 90 01 C0
  can0  0CF00417   [8]  FF FF FF E6 15 FF FF FF
  can0  0B0BB241   [8]  22 09 27 00 09 90 01 C0
  can0  0B0BB341   [8]  00 00 00 00 00 00 00 00
  can0  0CF00417   [8]  FF FF FF F0 15 FF FF FF
  can0  0CF00317   [8]  FF FF 1F FF FF FF FF FF
  can0  0B0BB241   [8]  12 09 27 00 09 90 01 C0
  can0  0CF00417   [8]  FF FF FF F0 15 FF FF FF
  can0  0B0BB341   [8]  00 00 00 00 00 00 00 00
  can0  0B0BB241   [8]  22 09 27 00 09 90 01 C0
  can0  0B0BB441   [8]  01 01 06 0A 0A 6A 38 27
  can0  0B0BB441   [8]  01 01 06 0A 0A 6A 38 27
  can0  0B0BB441   [8]  01 01 06 0A 0A 6A 38 27
  can0  0CF00417   [8]  FF FF FF DC 15 FF FF FF
  can0  0CF00317   [8]  FF FF 20 FF FF FF FF FF
  can0  0B0BB441   [8]  01 01 06 0A 0A 6A 38 27
  can0  0B0BB241   [8]  22 09 27 00 09 90 01 C0
  can0  0B0BB541   [8]  01 01 00 00 00 00 00 00
  can0  0B0BB441   [8]  01 01 06 0A 0A 6A 38 27
  can0  0B0BB341   [8]  00 00 00 00 00 00 00 00
  can0  0B0BB441   [8]  01 01 06 0A 0A 6A 38 27
  can0  0B0BB441   [8]  01 01 06 0A 0A 6A 38 27
  can0  0CF00417   [8]  FF FF FF DC 15 FF FF FF
  can0  18FFAC17   [8]  02 16 80 51 FF FF FF 00
  can0  18FEF117   [8]  F7 00 00 FF FF FF FF FF
  can0  18FEF217   [8]  91 00 FF FF FF FF FF FF
  can0  18FFAD17   [8]  01 00 00 00 00 0A 02 1D
  can0  0B0BB241   [8]  12 09 27 00 09 90 01 C0
  can0  0B0BB441   [8]  01 01 06 0A 0A 6A 38 27
  can0  0B0BB441   [8]  01 01 06 0A 0A 6A 38 27
  can0  0B0BB441   [8]  01 01 06 0A 0A 6A 38 27
  can0  0CF00417   [8]  FF FF FF DC 15 FF FF FF
  can0  0B0BB341   [8]  00 00 00 00 00 00 00 00
  can0  19FF2941   [8]  AA 05 FF FF FF FF FF FF
  can0  0B0BB441   [8]  01 01 06 0A 0A 6A 38 27
  can0  18FEE641   [8]  84 02 03 0C 18 27 FF F9
  can0  18FEF341   [8]  A5 05 7E 79 D9 DC E9 BC
  can0  0B0BB241   [8]  22 09 27 00 09 90 01 C0
  can0  19FF2941   [8]  AA 05 FF FF FF FF FF FF
  can0  0B0BB441   [8]  01 01 06 0A 0A 6A 38 27
  can0  18FEE641   [8]  84 02 03 0C 18 27 FF F9
  can0  18FEF341   [8]  A5 05 7E 79 D9 DC E9 BC
  can0  0B0BB441   [8]  01 01 06 0A 0A 6A 38 27
  can0  0B0BB441   [8]  01 01 06 0A 0A 6A 38 27
  can0  0B0BB441   [8]  01 01 06 0A 0A 6A 38 27
  can0  0CF00417   [8]  FF FF FF DC 15 FF FF FF
  can0  0CF00317   [8]  FF FF 20 FF FF FF FF FF
  can0  0B0BB241   [8]  12 09 27 00 09 90 01 C0
  can0  0B0BB441   [8]  01 01 06 0A 0A 6A 38 27
  can0  0B0BB341   [8]  00 00 00 00 00 00 00 00
  can0  0B0BB441   [8]  01 01 06 0A 0A 6A 38 27
  can0  0CF00417   [8]  FF FF FF D8 15 FF FF FF
  can0  0B0BB441   [8]  01 01 06 0A 0A 6A 38 27
  can0  0B0BB441   [8]  01 01 06 0A 0A 6A 38 27
  can0  0B0BB241   [8]  12 09 27 00 09 90 01 C0
  can0  0B0BB441   [8]  01 01 06 0A 0A 6A 38 27
  can0  0B0BB441   [8]  01 01 06 0A 0A 6A 38 27
  can0  0CF00417   [8]  FF FF FF DC 15 FF FF FF
  can0  0B0BB341   [8]  00 00 00 00 00 00 00 00
  can0  0CF00317   [8]  FF FF 20 FF FF FF FF FF
  can0  0B0BB241   [8]  22 09 27 00 09 90 01 C0
  can0  0B0BB541   [8]  01 01 00 00 00 00 00 00
  can0  19FA0441   [8]  E0 33 9F FF 04 D4 5B 0E
  can0  0CF00417   [8]  FF FF FF DC 15 FF FF FF
  can0  18FFAC17   [8]  02 16 80 51 FF FF FF 00
  can0  18FEF117   [8]  F7 00 00 FF FF FF FF FF
  can0  18FEF217   [8]  92 00 FF FF FF FF FF FF
  can0  18FFAD17   [8]  02 00 00 E9 7F FA 7F 04
  can0  0B0BB241   [8]  12 09 27 00 09 90 01 C0
  can0  0B0BB341   [8]  00 00 00 00 00 00 00 00
  can0  0CF00417   [8]  FF FF FF DC 15 FF FF FF
  can0  0B0BB241   [8]  22 09 27 00 09 90 01 C0
  can0  19FA0441   [8]  E1 A9 1A 5C 12 FF FF FF
  can0  0CF00417   [8]  FF FF FF E6 15 FF FF FF
  can0  0B0BB341   [8]  00 00 00 00 00 00 00 00
  can0  0CF00317   [8]  FF FF 1F FF FF FF FF FF
  can0  0B0BB241   [8]  22 09 27 00 09 90 01 C0
  can0  0CF00417   [8]  FF FF FF E6 15 FF FF FF
  can0  19FA0441   [8]  E2 FF 02 DA 24 13 D8 72
  can0  0B0BB241   [8]  12 09 27 00 09 90 01 C0
  can0  0B0BB341   [8]  00 00 00 00 00 00 00 00
  can0  0CF00417   [8]  FF FF FF F0 15 FF FF FF
  can0  0CF00317   [8]  FF FF 1F FF FF FF FF FF
  can0  0B0BB241   [8]  22 09 27 00 09 90 01 C0
  can0  0B0BB541   [8]  01 01 00 00 00 00 00 00
  can0  19FA0441   [8]  E3 30 11 FF FF FF FF 02
  can0  0CF00417   [8]  FF FF FF EB 15 FF FF FF
  can0  0B0BB341   [8]  00 00 00 00 00 00 00 00
  can0  18FEF117   [8]  F7 00 00 FF FF FF FF FF
  can0  18FEF217   [8]  92 00 FF FF FF FF FF FF
  can0  18FFAC17   [8]  02 16 80 51 FF FF FF 00
  can0  18FFAD17   [8]  03 FA 09 00 00 00 00 FF
  can0  0B0BB241   [8]  12 09 27 00 09 90 01 C0
  can0  0CF00417   [8]  FF FF FF E6 15 FF FF FF
  can0  19FA0441   [8]  E4 DB 00 00 00 00 5C 12
  can0  0B0BB241   [8]  12 09 27 00 09 90 01 C0
  can0  0B0BB341   [8]  00 00 00 00 00 00 00 00
  can0  0CF00417   [8]  FF FF FF E6 15 FF FF FF
  can0  0CF00317   [8]  FF FF 1F FF FF FF FF FF
  can0  0B0BB241   [8]  22 09 27 00 09 90 01 C0
  can0  19FA0441   [8]  E5 FF FF FF FF 01 E2 00
  can0  0CF00417   [8]  FF FF FF E1 15 FF FF FF
  can0  0B0BB341   [8]  00 00 00 00 00 00 00 00
  can0  0B0BB241   [8]  12 09 27 00 09 90 01 C0
  can0  0CF00417   [8]  FF FF FF E1 15 FF FF FF
  can0  0CF00317   [8]  FF FF 1F FF FF FF FF FF
  can0  18FEE841   [8]  FF FF 00 00 FF FF F7 4E
  can0  0B0BB241   [8]  22 09 27 00 09 90 01 C0
  can0  0B0BB541   [8]  01 01 00 00 00 00 00 00
  can0  19FA0441   [8]  E6 00 00 00 C0 12 FF FF
  can0  0B0BB341   [8]  00 00 00 00 00 00 00 00
  can0  0CF00417   [8]  FF FF FF E1 15 FF FF FF
  can0  18FFAC17   [8]  02 16 80 51 FF FF FF 00
  can0  18FEF117   [8]  F7 00 00 FF FF FF FF FF
  can0  18FEF217   [8]  91 00 FF FF FF FF FF FF
  can0  18FFAD17   [8]  00 17 CA 00 00 18 0C 06
  can0  0B0BB241   [8]  22 09 27 00 09 90 01 C0
  can0  0CF00417   [8]  FF FF FF DC 15 FF FF FF
  can0  0B0BB341   [8]  00 00 00 00 00 00 00 00
  can0  19FA0441   [8]  E7 FF FF 01 FF FF FF FF
  can0  0B0BB241   [8]  12 09 27 00 09 90 01 C0
  can0  0CF00417   [8]  FF FF FF D3 15 FF FF FF
  can0  0CF00317   [8]  FF FF 20 FF FF FF FF FF
  can0  0B0BB241   [8]  22 09 27 00 09 90 01 C0
  can0  0B0BB341   [8]  00 00 00 00 00 00 00 00
  can0  0CF00417   [8]  FF FF FF D3 15 FF FF FF
  can0  0B0BB241   [8]  12 09 27 00 09 90 01 C0
  can0  0CF00417   [8]  FF FF FF C9 15 FF FF FF
  can0  0B0BB341   [8]  00 00 00 00 00 00 00 00
  can0  0CF00317   [8]  FF FF 20 FF FF FF FF FF
  can0  0B0BB241   [8]  12 09 27 00 09 90 01 C0
  can0  0B0BB541   [8]  01 01 00 00 00 00 00 00
  can0  0CF00417   [8]  FF FF FF C9 15 FF FF FF
  can0  18FFAC17   [8]  02 16 80 51 FF FF FF 00
  can0  18FEF117   [8]  F7 00 00 FF FF FF FF FF
  can0  18FEF217   [8]  91 00 FF FF FF FF FF FF
  can0  18FFAD17   [8]  01 00 00 00 00 0A 02 1D
  can0  0B0BB241   [8]  22 09 27 00 09 90 01 C0
  can0  0B0BB341   [8]  00 00 00 00 00 00 00 00
  can0  0CF00417   [8]  FF FF FF CE 15 FF FF FF
  can0  0B0BB241   [8]  12 09 27 00 09 90 01 C0
  can0  0CF00417   [8]  FF FF FF CE 15 FF FF FF
  can0  0B0BB341   [8]  00 00 00 00 00 00 00 00
  can0  0CF00317   [8]  FF FF 1F FF FF FF FF FF
  can0  0B0BB241   [8]  22 09 27 00 09 90 01 C0
  can0  0CF00417   [8]  FF FF FF E1 15 FF FF FF
  can0  0B0BB241   [8]  22 09 27 00 09 90 01 C0
  can0  0B0BB341   [8]  00 00 00 00 00 00 00 00
  can0  0CF00417   [8]  FF FF FF EB 15 FF FF FF
  can0  0CF00317   [8]  FF FF 1F FF FF FF FF FF
  can0  0B0BB241   [8]  12 09 27 00 09 90 01 C0
  can0  0B0BB541   [8]  01 01 00 00 00 00 00 00
  can0  0CF00417   [8]  FF FF FF EB 15 FF FF FF
  can0  0B0BB341   [8]  00 00 00 00 00 00 00 00
  can0  18FEF117   [8]  F7 00 00 FF FF FF FF FF
  can0  18FEF217   [8]  94 00 FF FF FF FF FF FF
  can0  18FFAC17   [8]  02 16 80 51 FF FF FF 00
  can0  18FFAD17   [8]  02 00 00 E9 7F FA 7F 04
  can0  0B0BB241   [8]  22 09 27 00 09 90 01 C0
  can0  0CF00417   [8]  FF FF FF FE 15 FF FF FF
  can0  0B0BB241   [8]  12 09 27 00 09 90 01 C0
  can0  0B0BB341   [8]  00 00 00 00 00 00 00 00
  can0  0CF00417   [8]  FF FF FF 03 16 FF FF FF
  can0  0CF00317   [8]  FF FF 1E FF FF FF FF FF
  can0  0B0BB241   [8]  12 09 27 00 09 90 01 C0
  can0  0CF00417   [8]  FF FF FF 03 16 FF FF FF
  can0  0B0BB341   [8]  00 00 00 00 00 00 00 00
  can0  0B0BB241   [8]  22 09 27 00 09 90 01 C0
  can0  0CF00417   [8]  FF FF FF F9 15 FF FF FF
  can0  0CF00317   [8]  FF FF 1F FF FF FF FF FF
  can0  0B0BB241   [8]  12 09 27 00 09 90 01 C0
  can0  0B0BB541   [8]  01 01 00 00 00 00 00 00
  can0  0B0BB341   [8]  00 00 00 00 00 00 00 00
  can0  0CF00417   [8]  FF FF FF E6 15 FF FF FF
  can0  18FFAC17   [8]  02 16 80 51 FF FF FF 00
  can0  18FEF117   [8]  F7 00 00 FF FF FF FF FF
  can0  18FEF217   [8]  8E 00 FF FF FF FF FF FF
  can0  18FFAD17   [8]  03 FA 09 00 00 00 00 FF
  can0  0B0BB241   [8]  22 09 27 00 09 90 01 C0
  can0  0CF00417   [8]  FF FF FF C4 15 FF FF FF
  can0  0B0BB341   [8]  00 00 00 00 00 00 00 00
  can0  0B0BB241   [8]  22 09 27 00 09 90 01 C0
  can0  0CF00417   [8]  FF FF FF C4 15 FF FF FF
  can0  0CF00317   [8]  FF FF 20 FF FF FF FF FF
  can0  0B0BB241   [8]  12 09 27 00 09 90 01 C0
  can0  0B0BB341   [8]  00 00 00 00 00 00 00 00
  can0  0CF00417   [8]  FF FF FF BB 15 FF FF FF
  can0  0B0BB241   [8]  22 09 27 00 09 90 01 C0
  can0  0CF00417   [8]  FF FF FF C4 15 FF FF FF
  can0  0B0BB341   [8]  00 00 00 00 00 00 00 00
  can0  0CF00317   [8]  FF FF 20 FF FF FF FF FF
  can0  0B0BB241   [8]  12 09 27 00 09 90 01 C0
  can0  0B0BB541   [8]  01 01 00 00 00 00 00 00
  can0  0CF00417   [8]  FF FF FF C4 15 FF FF FF
  can0  18FFAC17   [8]  02 16 80 51 FF FF FF 00
  can0  18FEF117   [8]  F7 00 00 FF FF FF FF FF
  can0  18FEF217   [8]  94 00 FF FF FF FF FF FF
  can0  18FFAD17   [8]  00 17 CA 00 00 18 0C 06
  can0  0B0BB241   [8]  12 09 27 00 09 90 01 C0
  can0  0B0BB341   [8]  00 00 00 00 00 00 00 00
  can0  0CF00417   [8]  FF FF FF C9 15 FF FF FF
  can0  0B0BB241   [8]  22 09 27 00 09 90 01 C0
  can0  0CF00417   [8]  FF FF FF C9 15 FF FF FF
  can0  0B0BB341   [8]  00 00 00 00 00 00 00 00
  can0  0CF00317   [8]  FF FF 20 FF FF FF FF FF
  can0  0B0BB241   [8]  12 09 27 00 09 90 01 C0
  can0  0CF00417   [8]  FF FF FF C9 15 FF FF FF
  can0  0B0BB241   [8]  22 09 27 00 09 90 01 C0
  can0  0B0BB341   [8]  00 00 00 00 00 00 00 00
  can0  0CF00417   [8]  FF FF FF D3 15 FF FF FF
  can0  0CF00317   [8]  FF FF 20 FF FF FF FF FF
  can0  18FEE841   [8]  FF FF 00 00 FF FF F7 4E
  can0  0B0BB241   [8]  22 09 27 00 09 90 01 C0
  can0  0B0BB541   [8]  01 01 00 00 00 00 00 00
  can0  19FA0341   [8]  9F FF 32 00 50 00 5A 00
  can0  0CF00417   [8]  FF FF FF D3 15 FF FF FF
  can0  0B0BB341   [8]  00 00 00 00 00 00 00 00
  can0  18FECA17   [8]  C3 FF FF FF FF FF FF FF
  can0  18FEE717   [8]  64 00 00 00 FF FF FF FF
  can0  18FEF117   [8]  F7 00 00 FF FF FF FF FF
  can0  18FEF217   [8]  95 00 FF FF FF FF FF FF
  can0  18FEF517   [8]  FF FF FF 80 25 FF FF FF
  can0  18FEFC17   [8]  FF 3D FF FF FF FF FF FF
  can0  18FFAC17   [8]  02 16 80 51 FF FF FF 00
  can0  18FFAD17   [8]  01 00 00 00 00 0A 02 1E
  can0  0B0BB241   [8]  12 09 27 00 09 90 01 C0
  can0  0CF00417   [8]  FF FF FF CE 15 FF FF FF
  can0  0B0BB241   [8]  22 09 27 00 09 90 01 C0
  can0  0B0BB341   [8]  00 00 00 00 00 00 00 00
  can0  0CF00417   [8]  FF FF FF CE 15 FF FF FF
  can0  0CF00317   [8]  FF FF 20 FF FF FF FF FF
  can0  0B0BB241   [8]  23 09 27 00 09 90 01 C0
  can0  0CF00417   [8]  FF FF FF DC 15 FF FF FF
  can0  0B0BB341   [8]  00 00 00 00 00 00 00 00
  can0  0B0BB241   [8]  23 09 27 00 09 90 01 C0
  can0  0CF00417   [8]  FF FF FF EB 15 FF FF FF
  can0  0CF00317   [8]  FF FF 1F FF FF FF FF FF
  can0  0B0BB241   [8]  23 09 27 00 09 90 01 C0
  can0  0B0BB541   [8]  01 01 00 00 00 00 00 00
  can0  0B0BB341   [8]  00 00 00 00 00 00 00 00
  can0  0CF00417   [8]  FF FF FF EB 15 FF FF FF
  can0  18FFAC17   [8]  02 16 80 51 FF FF FF 01
  can0  18FEF117   [8]  F7 00 00 FF FF FF FF FF
  can0  18FEF217   [8]  94 00 FF FF FF FF FF FF
  can0  18FFAD17   [8]  02 00 00 E9 7F FA 7F 04
  can0  0B0BB241   [8]  23 09 27 00 09 90 01 C0
  can0  0CF00417   [8]  FF FF FF F0 15 FF FF FF
  can0  0B0BB341   [8]  00 00 00 00 00 00 00 00
  can0  0B0BB241   [8]  23 09 27 00 09 90 01 C0
  can0  0CF00417   [8]  FF FF FF F9 15 FF FF FF
  can0  0CF00317   [8]  FF FF 1E FF FF FF FF FF
  can0  0B0BB241   [8]  23 09 27 00 09 90 01 C0
  can0  0B0BB341   [8]  00 00 00 00 00 00 00 00
  can0  0CF00417   [8]  FF FF FF F9 15 FF FF FF
  can0  0B0BB441   [8]  01 01 06 0A 0A 6A 38 27
  can0  0B0BB241   [8]  23 09 27 00 09 90 01 C0
  can0  0B0BB441   [8]  01 01 06 0A 0A 6A 38 27
  can0  0CF00417   [8]  FF FF FF EB 15 FF FF FF
  can0  0B0BB341   [8]  00 00 00 00 00 00 00 00
  can0  0B0BB441   [8]  01 01 06 0A 0A 6A 38 27
  can0  0B0BB441   [8]  01 01 06 0A 0A 6A 38 27
  can0  0CF00317   [8]  FF FF 20 FF FF FF FF FF
  can0  0B0BB241   [8]  23 09 27 00 09 90 01 C0
  can0  0B0BB541   [8]  01 01 00 00 00 00 00 00
  can0  0B0BB441   [8]  01 01 06 0A 0A 6A 38 27
  can0  0B0BB441   [8]  01 01 06 0A 0A 6A 38 27
  can0  0CF00417   [8]  FF FF FF DC 15 FF FF FF
  can0  18FFAC17   [8]  02 16 80 51 FF FF FF 01
  can0  18FEF117   [8]  F7 00 00 FF FF FF FF FF
  can0  18FEF217   [8]  90 00 FF FF FF FF FF FF
  can0  18FFAD17   [8]  03 FA 09 00 00 00 00 FF
  can0  0B0BB441   [8]  01 01 06 0A 0A 6A 38 27
  can0  0B0BB441   [8]  01 01 06 0A 0A 6A 38 27
  can0  0B0BB241   [8]  23 09 27 00 09 90 01 C0
  can0  0B0BB341   [8]  00 00 00 00 00 00 00 00
  can0  0B0BB441   [8]  01 01 06 0A 0A 6A 38 27
  can0  0B0BB441   [8]  01 01 06 0A 0A 6A 38 27
  can0  0CF00417   [8]  FF FF FF D3 15 FF FF FF
  can0  19FF2941   [8]  AA 05 FF FF FF FF FF FF
  can0  0B0BB441   [8]  01 01 06 0A 0A 6A 38 27
  can0  18FEE641   [8]  88 02 03 0C 18 27 FF F9
  can0  18FEF341   [8]  A5 05 7E 79 D9 DC E9 BC
  can0  0B0BB241   [8]  23 09 27 00 09 90 01 C0
  can0  19FF2941   [8]  AA 05 FF FF FF FF FF FF
  can0  0B0BB441   [8]  01 01 06 0A 0A 6A 38 27
  can0  18FEE641   [8]  88 02 03 0C 18 27 FF F9
  can0  18FEF341   [8]  A5 05 7E 79 D9 DC E9 BC
  can0  0B0BB441   [8]  01 01 06 0A 0A 6A 38 27
  can0  0B0BB441   [8]  01 01 06 0A 0A 6A 38 27
  can0  0B0BB441   [8]  01 01 06 0A 0A 6A 38 27
  can0  0CF00417   [8]  FF FF FF D3 15 FF FF FF
  can0  0B0BB341   [8]  00 00 00 00 00 00 00 00
  can0  0CF00317   [8]  FF FF 20 FF FF FF FF FF
  can0  0B0BB441   [8]  01 01 06 0A 0A 6A 38 27
  can0  0B0BB241   [8]  23 09 27 00 09 90 01 C0
  can0  0B0BB441   [8]  01 01 06 0A 0A 6A 38 27
  can0  0CF00417   [8]  FF FF FF D8 15 FF FF FF
  can0  0B0BB441   [8]  01 01 06 0A 0A 6A 38 27
  can0  0B0BB441   [8]  01 01 06 0A 0A 6A 38 27
  can0  0B0BB241   [8]  23 09 27 00 09 90 01 C0
  can0  0B0BB441   [8]  01 01 06 0A 0A 6A 38 27
  can0  0B0BB441   [8]  01 01 06 0A 0A 6A 38 27
  can0  0B0BB341   [8]  00 00 00 00 00 00 00 00
  can0  0CF00417   [8]  FF FF FF DC 15 FF FF FF
  can0  0CF00317   [8]  FF FF 20 FF FF FF FF FF
  can0  0B0BB241   [8]  13 09 27 00 09 90 01 C0
  can0  0B0BB541   [8]  01 01 00 00 00 00 00 00
  can0  0CF00417   [8]  FF FF FF DC 15 FF FF FF
  can0  0B0BB341   [8]  00 00 00 00 00 00 00 00
  can0  18FEF117   [8]  F7 00 00 FF FF FF FF FF
  can0  18FEF217   [8]  94 00 FF FF FF FF FF FF
  can0  18FFAC17   [8]  02 16 80 51 FF FF FF 00
  can0  18FFAD17   [8]  00 18 CA 00 00 18 0C 06
  can0  0B0BB241   [8]  13 09 27 00 09 90 01 C0
  can0  0CF00417   [8]  FF FF FF E6 15 FF FF FF
  can0  0B0BB241   [8]  23 09 27 00 09 90 01 C0
  can0  0B0BB341   [8]  00 00 00 00 00 00 00 00
  can0  0CF00417   [8]  FF FF FF DC 15 FF FF FF
  can0  0CF00317   [8]  FF FF 20 FF FF FF FF FF
  can0  0B0BB241   [8]  13 09 27 00 09 90 01 C0
  can0  0CF00417   [8]  FF FF FF DC 15 FF FF FF
  can0  0B0BB341   [8]  00 00 00 00 00 00 00 00
  can0  0B0BB241   [8]  23 09 27 00 09 90 01 C0
  can0  0CF00417   [8]  FF FF FF DC 15 FF FF FF
  can0  0CF00317   [8]  FF FF 20 FF FF FF FF FF
  can0  0B0BB241   [8]  23 09 27 00 09 90 01 C0
  can0  0B0BB541   [8]  01 01 00 00 00 00 00 00
  can0  0B0BB341   [8]  00 00 00 00 00 00 00 00
  can0  0CF00417   [8]  FF FF FF DC 15 FF FF FF
  can0  18FFAC17   [8]  02 16 80 51 FF FF FF 00
  can0  18FEF117   [8]  F7 00 00 FF FF FF FF FF
  can0  18FEF217   [8]  91 00 FF FF FF FF FF FF
  can0  18FFAD17   [8]  01 00 00 00 00 0A 02 1E
  can0  0B0BB241   [8]  13 09 27 00 09 90 01 C0
  can0  0CF00417   [8]  FF FF FF E1 15 FF FF FF
  can0  0B0BB341   [8]  00 00 00 00 00 00 00 00
  can0  0B0BB241   [8]  23 09 27 00 09 90 01 C0
  can0  0CF00417   [8]  FF FF FF E1 15 FF FF FF
  can0  0CF00317   [8]  FF FF 1F FF FF FF FF FF
  can0  0B0BB241   [8]  12 09 27 00 09 90 01 C0
  can0  0B0BB341   [8]  00 00 00 00 00 00 00 00
  can0  0CF00417   [8]  FF FF FF E1 15 FF FF FF
  can0  0B0BB241   [8]  15 09 27 00 09 90 01 C0
  can0  0CF00417   [8]  FF FF FF DC 15 FF FF FF
  can0  0B0BB341   [8]  00 00 00 00 00 00 00 00
  can0  0CF00317   [8]  FF FF 20 FF FF FF FF FF
  can0  18FEE841   [8]  FF FF 00 00 FF FF F7 4E
  can0  0B0BB241   [8]  25 09 27 00 09 90 01 C0
  can0  0B0BB541   [8]  01 01 00 00 00 00 00 00
  can0  0CF00417   [8]  FF FF FF DC 15 FF FF FF
  can0  18FFAC17   [8]  02 16 80 51 FF FF FF 00
  can0  18FEF117   [8]  F7 00 00 FF FF FF FF FF
  can0  18FEF217   [8]  92 00 FF FF FF FF FF FF
  can0  18FFAD17   [8]  02 00 00 E9 7F FA 7F 04
  can0  0B0BB241   [8]  15 09 27 00 09 90 01 C0
  can0  0B0BB341   [8]  00 00 00 00 00 00 00 00
  can0  0CF00417   [8]  FF FF FF EB 15 FF FF FF
  can0  0B0BB241   [8]  25 09 27 00 09 90 01 C0
  can0  0CF00417   [8]  FF FF FF E1 15 FF FF FF
  can0  0B0BB341   [8]  00 00 00 00 00 00 00 00
  can0  0CF00317   [8]  FF FF 1F FF FF FF FF FF
  can0  0B0BB241   [8]  25 09 27 00 09 90 01 C0
  can0  0CF00417   [8]  FF FF FF E1 15 FF FF FF
  can0  0B0BB241   [8]  15 09 27 00 09 90 01 C0
  can0  0B0BB341   [8]  00 00 00 00 00 00 00 00
  can0  0CF00417   [8]  FF FF FF F0 15 FF FF FF
  can0  0CF00317   [8]  FF FF 1E FF FF FF FF FF
  can0  0B0BB241   [8]  25 09 27 00 09 90 01 C0
  can0  0B0BB541   [8]  01 01 00 00 00 00 00 00
  can0  0CF00417   [8]  FF FF FF F4 15 FF FF FF
  can0  0B0BB341   [8]  00 00 00 00 00 00 00 00
  can0  18FEF117   [8]  F7 00 00 FF FF FF FF FF
  can0  18FEF217   [8]  90 00 FF FF FF FF FF FF
  can0  18FFAC17   [8]  02 16 80 51 FF FF FF 00
  can0  18FFAD17   [8]  03 FA 09 00 00 00 00 FF
  can0  0B0BB241   [8]  15 09 27 00 09 90 01 C0
  can0  0CF00417   [8]  FF FF FF F0 15 FF FF FF
  can0  0B0BB241   [8]  15 09 27 00 09 90 01 C0
  can0  0B0BB341   [8]  00 00 00 00 00 00 00 00
  can0  0CF00417   [8]  FF FF FF F0 15 FF FF FF
  can0  0CF00317   [8]  FF FF 1F FF FF FF FF FF
  can0  0B0BB241   [8]  25 09 27 00 09 90 01 C0
  can0  0CF00417   [8]  FF FF FF EB 15 FF FF FF
  can0  0B0BB341   [8]  00 00 00 00 00 00 00 00
  can0  0B0BB241   [8]  12 09 27 00 09 90 01 C0
  can0  19FA0441   [8]  00 C3 A0 FF 10 0A 01 36
  can0  0CF00417   [8]  FF FF FF D3 15 FF FF FF
  can0  0CF00317   [8]  FF FF 20 FF FF FF FF FF
  can0  0B0BB241   [8]  22 09 27 00 09 90 01 C0
  can0  0B0BB541   [8]  01 01 00 00 00 00 00 00
  can0  0B0BB341   [8]  00 00 00 00 00 00 00 00
  can0  0CF00417   [8]  FF FF FF D3 15 FF FF FF
  can0  18FFAC17   [8]  02 16 80 51 FF FF FF 00
  can0  18FEF117   [8]  F7 00 00 FF FF FF FF FF
  can0  18FEF217   [8]  8F 00 FF FF FF FF FF FF
  can0  18FFAD17   [8]  00 19 CA 00 00 18 0C 06
  can0  19FA0441   [8]  01 21 20 88 13 FF FF FF
  can0  0B0BB241   [8]  22 09 27 00 09 90 01 C0
  can0  0CF00417   [8]  FF FF FF D3 15 FF FF FF
  can0  0B0BB341   [8]  00 00 00 00 00 00 00 00
  can0  0B0BB241   [8]  12 09 27 00 09 90 01 C0
  can0  19FA0441   [8]  02 FF 02 10 4B 19 DF 8E
  can0  0CF00417   [8]  FF FF FF CE 15 FF FF FF
  can0  0CF00317   [8]  FF FF 20 FF FF FF FF FF
  can0  0B0BB241   [8]  22 09 27 00 09 90 01 C0
  can0  0B0BB341   [8]  00 00 00 00 00 00 00 00
  can0  0CF00417   [8]  FF FF FF CE 15 FF FF FF
  can0  0B0BB241   [8]  12 09 27 00 09 90 01 C0
  can0  19FA0441   [8]  03 F8 11 FF FF FF FF 02
  can0  0CF00417   [8]  FF FF FF C4 15 FF FF FF
  can0  0B0BB341   [8]  00 00 00 00 00 00 00 00
  can0  0CF00317   [8]  FF FF 20 FF FF FF FF FF
  can0  0B0BB241   [8]  12 09 27 00 09 90 01 C0
  can0  0B0BB541   [8]  01 01 00 00 00 00 00 00
  can0  19FA0441   [8]  04 12 85 07 DB 65 10 0E
  can0  0CF00417   [8]  FF FF FF C9 15 FF FF FF
  can0  18FEF117   [8]  F7 00 00 FF FF FF FF FF
  can0  18FEF217   [8]  93 00 FF FF FF FF FF FF
  can0  18FFAC17   [8]  02 16 80 51 FF FF FF 00
  can0  18FFAD17   [8]  01 00 00 00 00 0A 02 1F
  can0  0B0BB241   [8]  22 09 27 00 09 90 01 C0
  can0  0B0BB341   [8]  00 00 00 00 00 00 00 00
  can0  0CF00417   [8]  FF FF FF D8 15 FF FF FF
  can0  0B0BB241   [8]  12 09 27 00 09 90 01 C0
  can0  19FA0441   [8]  05 FF FF FF FF 02 15 BC
  can0  0CF00417   [8]  FF FF FF D8 15 FF FF FF
  can0  0B0BB341   [8]  00 00 00 00 00 00 00 00
  can0  0CF00317   [8]  FF FF 1F FF FF FF FF FF
  can0  0B0BB241   [8]  22 09 27 00 09 90 01 C0
  can0  0CF00417   [8]  FF FF FF EB 15 FF FF FF
  can0  19FA0441   [8]  06 02 24 C2 04 10 FF FF
  can0  0B0BB241   [8]  22 09 27 00 09 90 01 C0
  can0  0B0BB341   [8]  00 00 00 00 00 00 00 00
  can0  0CF00417   [8]  FF FF FF F0 15 FF FF FF
  can0  0CF00317   [8]  FF FF 1F FF FF FF FF FF
  can0  0B0BB241   [8]  12 09 27 00 09 90 01 C0
  can0  0B0BB541   [8]  01 01 00 00 00 00 00 00
  can0  19FA0441   [8]  07 FF FF 02 17 65 1D A7
  can0  0CF00417   [8]  FF FF FF F0 15 FF FF FF
  can0  0B0BB341   [8]  00 00 00 00 00 00 00 00
  can0  18FEF117   [8]  F7 00 00 FF FF FF FF FF
  can0  18FEF217   [8]  93 00 FF FF FF FF FF FF
  can0  18FFAC17   [8]  02 16 80 51 FF FF FF 00
  can0  18FFAD17   [8]  02 00 00 E9 7F FA 7F 04
  can0  0B0BB241   [8]  22 09 27 00 09 90 01 C0
  can0  0CF00417   [8]  FF FF FF E6 15 FF FF FF
  can0  0B0BB241   [8]  12 09 27 00 09 90 01 C0
  can0  19FA0441   [8]  08 5D F8 11 FF FF FF FF
  can0  0B0BB341   [8]  00 00 00 00 00 00 00 00
  can0  0CF00417   [8]  FF FF FF E6 15 FF FF FF
  can0  0CF00317   [8]  FF FF 1F FF FF FF FF FF
  can0  0B0BB241   [8]  12 09 27 00 09 90 01 C0
  can0  19FA0441   [8]  09 02 19 85 07 ED 17 68
  can0  0CF00417   [8]  FF FF FF E6 15 FF FF FF
  can0  0B0BB341   [8]  00 00 00 00 00 00 00 00
  can0  0B0BB241   [8]  22 09 27 00 09 90 01 C0
  can0  0CF00417   [8]  FF FF FF E6 15 FF FF FF
  can0  0CF00317   [8]  FF FF 1F FF FF FF FF FF
  can0  18FEE841   [8]  FF FF 00 00 FF FF F7 4E
  can0  0B0BB241   [8]  12 09 27 00 09 90 01 C0
  can0  0B0BB541   [8]  01 01 00 00 00 00 00 00
  can0  19FA0341   [8]  A0 FF 32 00 50 00 5A 00
  can0  0B0BB341   [8]  00 00 00 00 00 00 00 00
  can0  19FA0441   [8]  0A 10 FF FF FF FF 02 1A
  can0  0CF00417   [8]  FF FF FF E6 15 FF FF FF
  can0  18FFAC17   [8]  02 16 80 51 FF FF FF 00
  can0  18FECA17   [8]  C3 FF FF FF FF FF FF FF
  can0  18FEE717   [8]  64 00 00 00 FF FF FF FF
  can0  18FEF117   [8]  F7 00 00 FF FF FF FF FF
  can0  18FEF217   [8]  90 00 FF FF FF FF FF FF
  can0  18FEF517   [8]  FF FF FF 80 25 FF FF FF
  can0  18FEFC17   [8]  FF 3D FF FF FF FF FF FF
  can0  18FFAD17   [8]  03 FA 09 00 00 00 00 FF
  can0  0B0BB241   [8]  22 09 27 00 09 90 01 C0
  can0  0CF00417   [8]  FF FF FF E1 15 FF FF FF
  can0  0B0BB341   [8]  00 00 00 00 00 00 00 00
  can0  19FA0441   [8]  0B 89 30 47 9F C0 12 FF
  can0  0B0BB241   [8]  22 09 27 00 09 90 01 C0
  can0  0CF00417   [8]  FF FF FF E1 15 FF FF FF
  can0  0CF00317   [8]  FF FF 20 FF FF FF FF FF
  can0  0B0BB241   [8]  12 09 27 00 09 90 01 C0
  can0  0B0BB341   [8]  00 00 00 00 00 00 00 00
  can0  19FA0441   [8]  0C FF FF FF 02 1B 34 08
  can0  0CF00417   [8]  FF FF FF DC 15 FF FF FF
  can0  0B0BB241   [8]  22 09 27 00 09 90 01 C0
  can0  0CF00417   [8]  FF FF FF DC 15 FF FF FF
  can0  0B0BB341   [8]  00 00 00 00 00 00 00 00
  can0  0CF00317   [8]  FF FF 20 FF FF FF FF FF
  can0  0B0BB241   [8]  12 09 27 00 09 90 01 C0
  can0  0B0BB541   [8]  01 01 00 00 00 00 00 00
  can0  19FA0441   [8]  0D EC 90 CC 10 FF FF FF
  can0  0CF00417   [8]  FF FF FF DC 15 FF FF FF
  can0  18FFAC17   [8]  02 16 80 51 FF FF FF 00
  can0  18FEF117   [8]  F7 00 00 FF FF FF FF FF
  can0  18FEF217   [8]  91 00 FF FF FF FF FF FF
  can0  18FFAD17   [8]  00 1A CA 00 00 18 0C 06
  can0  0B0BB241   [8]  12 09 27 00 09 90 01 C0
  can0  0B0BB341   [8]  00 00 00 00 00 00 00 00
  can0  19FA0441   [8]  0E FF 02 1C 68 10 28 EB
  can0  0CF00417   [8]  FF FF FF E1 15 FF FF FF
  can0  0B0BB241   [8]  22 09 27 00 09 90 01 C0
  can0  0CF00417   [8]  FF FF FF DC 15 FF FF FF
  can0  0B0BB341   [8]  00 00 00 00 00 00 00 00
  can0  0CF00317   [8]  FF FF 20 FF FF FF FF FF
  can0  0B0BB241   [8]  12 09 27 00 09 90 01 C0
  can0  19FA0441   [8]  0F CC 10 FF FF FF FF 02
  can0  0CF00417   [8]  FF FF FF DC 15 FF FF FF
  can0  0B0BB241   [8]  22 09 27 00 09 90 01 C0
  can0  0B0BB341   [8]  00 00 00 00 00 00 00 00
  can0  0B0BB441   [8]  01 01 06 0A 0A 6A 38 27
  can0  0B0BB441   [8]  01 01 06 0A 0A 6A 38 27
  can0  0B0BB441   [8]  01 01 06 0A 0A 6A 38 27
  can0  0CF00417   [8]  FF FF FF D8 15 FF FF FF
  can0  0CF00317   [8]  FF FF 20 FF FF FF FF FF
  can0  19FA0441   [8]  10 1D 85 07 42 40 CC 10
  can0  0B0BB241   [8]  22 09 27 00 09 90 01 C0
  can0  0B0BB541   [8]  01 01 00 00 00 00 00 00
  can0  0B0BB441   [8]  01 01 06 0A 0A 6A 38 27
  can0  0B0BB441   [8]  01 01 06 0A 0A 6A 38 27
  can0  0B0BB441   [8]  01 01 06 0A 0A 6A 38 27
  can0  0CF00417   [8]  FF FF FF C9 15 FF FF FF
  can0  0B0BB341   [8]  00 00 00 00 00 00 00 00
  can0  18FEF117   [8]  F7 00 00 FF FF FF FF FF
  can0  18FEF217   [8]  91 00 FF FF FF FF FF FF
  can0  18FFAC17   [8]  02 16 80 51 FF FF FF 00
  can0  18FFAD17   [8]  01 00 00 00 00 0A 02 1F
  can0  0B0BB441   [8]  01 01 06 0A 0A 6A 38 27
  can0  0B0BB441   [8]  01 01 06 0A 0A 6A 38 27
  can0  0B0BB241   [8]  12 09 27 00 09 90 01 C0
  can0  0B0BB441   [8]  01 01 06 0A 0A 6A 38 27
  can0  0B0BB441   [8]  01 01 06 0A 0A 6A 38 27
  can0  19FA0441   [8]  11 FF FF FF FF 02 1F 31
  can0  19FF2941   [8]  AA 05 FF FF FF FF FF FF
  can0  0B0BB441   [8]  01 01 06 0A 0A 6A 38 27
  can0  0CF00417   [8]  FF FF FF CE 15 FF FF FF
  can0  18FEE641   [8]  8C 02 03 0C 18 27 FF F9
  can0  18FEF341   [8]  A5 05 7E 79 D9 DC E9 BC
  can0  0B0BB241   [8]  22 09 27 00 09 90 01 C0
  can0  19FF2941   [8]  AA 05 FF FF FF FF FF FF
  can0  0B0BB441   [8]  01 01 06 0A 0A 6A 38 27
  can0  18FEE641   [8]  8C 02 03 0C 18 27 FF F9
  can0  18FEF341   [8]  A5 05 7E 79 D9 DC E9 BC
  can0  0B0BB341   [8]  00 00 00 00 00 00 00 00
  can0  0B0BB441   [8]  01 01 06 0A 0A 6A 38 27
  can0  0B0BB441   [8]  01 01 06 0A 0A 6A 38 27
  can0  0CF00417   [8]  FF FF FF CE 15 FF FF FF
  can0  0CF00317   [8]  FF FF 20 FF FF FF FF FF
  can0  0B0BB441   [8]  01 01 06 0A 0A 6A 38 27
  can0  0B0BB441   [8]  01 01 06 0A 0A 6A 38 27
  can0  0B0BB241   [8]  12 09 27 00 09 90 01 C0
  can0  19FA0441   [8]  12 15 EA D3 5C 12 FF FF
  can0  0B0BB441   [8]  01 01 06 0A 0A 6A 38 27
  can0  0B0BB441   [8]  01 01 06 0A 0A 6A 38 27
  can0  0CF00417   [8]  FF FF FF D8 15 FF FF FF
  can0  0B0BB341   [8]  00 00 00 00 00 00 00 00
  can0  0B0BB241   [8]  12 09 27 00 09 90 01 C0
  can0  0B0BB441   [8]  01 01 06 0A 0A 6A 38 27
  can0  0B0BB441   [8]  01 01 06 0A 0A 6A 38 27
  can0  0B0BB441   [8]  01 01 06 0A 0A 6A 38 27
  can0  19FA0441   [8]  13 FF FF 02 20 0A 0F F0
  can0  0CF00417   [8]  FF FF FF D3 15 FF FF FF
  can0  0CF00317   [8]  FF FF 20 FF FF FF FF FF
  can0  0B0BB241   [8]  22 09 27 00 09 90 01 C0
  can0  0B0BB541   [8]  01 01 00 00 00 00 00 00
  can0  0B0BB341   [8]  00 00 00 00 00 00 00 00
  can0  0CF00417   [8]  FF FF FF D3 15 FF FF FF
  can0  18FFAC17   [8]  02 16 80 51 FF FF FF 00
  can0  18FEF117   [8]  F7 00 00 FF FF FF FF FF
  can0  18FEF217   [8]  93 00 FF FF FF FF FF FF
  can0  18FFAD17   [8]  02 00 00 E9 7F FA 7F 04
  can0  0B0BB241   [8]  12 09 27 00 09 90 01 C0
  can0  19FA0441   [8]  14 0A F8 11 FF FF FF FF
  can0  0CF00417   [8]  FF FF FF D3 15 FF FF FF
  can0  0B0BB341   [8]  00 00 00 00 00 00 00 00
  can0  0B0BB241   [8]  22 09 27 00 09 90 01 C0
  can0  0CF00417   [8]  FF FF FF C9 15 FF FF FF
  can0  0CF00317   [8]  FF FF 20 FF FF FF FF FF
  can0  19FA0441   [8]  15 02 23 00 00 00 00 94
  can0  0B0BB241   [8]  22 09 27 00 09 90 01 C0
  can0  0B0BB341   [8]  00 00 00 00 00 00 00 00
  can0  0CF00417   [8]  FF FF FF C9 15 FF FF FF
  can0  0B0BB241   [8]  12 09 27 00 09 90 01 C0
  can0  19FA0441   [8]  16 11 FF FF FF FF 01 28
  can0  0CF00417   [8]  FF FF FF C9 15 FF FF FF
  can0  0B0BB341   [8]  00 00 00 00 00 00 00 00
  can0  0CF00317   [8]  FF FF 20 FF FF FF FF FF
  can0  0B0BB241   [8]  22 09 27 00 09 90 01 C0
  can0  0B0BB541   [8]  01 01 00 00 00 00 00 00
  can0  0CF00417   [8]  FF FF FF CE 15 FF FF FF
  can0  18FFAC17   [8]  02 16 80 51 FF FF FF 01
  can0  18FEF117   [8]  F7 00 00 FF FF FF FF FF
  can0  18FEF217   [8]  93 00 FF FF FF FF FF FF
  can0  18FFAD17   [8]  03 FA 09 00 00 00 00 FF
  can0  0B0BB241   [8]  12 09 27 00 09 90 01 C0
  can0  19FA0441   [8]  17 00 00 00 00 5C 12 FF
  can0  0B0BB341   [8]  00 00 00 00 00 00 00 00
  can0  0CF00417   [8]  FF FF FF D3 15 FF FF FF
  can0  0B0BB241   [8]  12 09 27 00 09 90 01 C0
  can0  19FA0441   [8]  18 FF FF FF 01 29 00 00
  can0  0CF00417   [8]  FF FF FF D3 15 FF FF FF
  can0  0B0BB341   [8]  00 00 00 00 00 00 00 00
  can0  0CF00317   [8]  FF FF 20 FF FF FF FF FF
  can0  0B0BB241   [8]  22 09 27 00 09 90 01 C0
  can0  0CF00417   [8]  FF FF FF D8 15 FF FF FF
  can0  0B0BB241   [8]  12 09 27 00 09 90 01 C0
  can0  0B0BB341   [8]  00 00 00 00 00 00 00 00
  can0  19FA0441   [8]  19 00 00 24 13 FF FF FF
  can0  0CF00417   [8]  FF FF FF D8 15 FF FF FF
  can0  0CF00317   [8]  FF FF 20 FF FF FF FF FF
  can0  18FEE841   [8]  FF FF 00 00 FF FF F7 4E
  can0  0B0BB241   [8]  22 09 27 00 09 90 01 C0
  can0  0B0BB541   [8]  01 01 00 00 00 00 00 00
  can0  0CF00417   [8]  FF FF FF D8 15 FF FF FF
  can0  0B0BB341   [8]  00 00 00 00 00 00 00 00
  can0  18FEF117   [8]  F7 00 00 FF FF FF FF FF
  can0  18FEF217   [8]  94 00 FF FF FF FF FF FF
  can0  18FFAC17   [8]  02 16 80 51 FF FF FF 01
  can0  18FFAD17   [8]  00 1B CA 00 00 18 0C 06
  can0  19FA0441   [8]  1A FF 01 2E 00 00 3A 4C
  can0  0B0BB241   [8]  22 09 27 00 09 90 01 C0
  can0  0CF00417   [8]  FF FF FF DC 15 FF FF FF
  can0  0B0BB241   [8]  12 09 27 00 09 90 01 C0
  can0  0B0BB341   [8]  00 00 00 00 00 00 00 00
  can0  19FA0441   [8]  1B 00 00 FF FF FF FF 01
  can0  0CF00417   [8]  FF FF FF E6 15 FF FF FF
  can0  0CF00317   [8]  FF FF 1F FF FF FF FF FF
  can0  0B0BB241   [8]  22 09 27 00 09 90 01 C0
  can0  0CF00417   [8]  FF FF FF E6 15 FF FF FF
  can0  0B0BB341   [8]  00 00 00 00 00 00 00 00
  can0  0B0BB241   [8]  12 09 27 00 09 90 01 C0
  can0  0CF00417   [8]  FF FF FF F0 15 FF FF FF
  can0  0CF00317   [8]  FF FF 1E FF FF FF FF FF
  can0  0B0BB241   [8]  12 09 27 00 09 90 01 C0
  can0  0B0BB541   [8]  01 01 00 00 00 00 00 00
  can0  0B0BB341   [8]  00 00 00 00 00 00 00 00
  can0  0CF00417   [8]  FF FF FF F4 15 FF FF FF
  can0  18FFAC17   [8]  02 16 80 51 FF FF FF 01
  can0  18FEF117   [8]  F7 00 00 FF FF FF FF FF
  can0  18FEF217   [8]  93 00 FF FF FF FF FF FF
  can0  18FFAD17   [8]  01 00 00 00 00 0A 02 1F
  can0  0B0BB241   [8]  22 09 27 00 09 90 01 C0
  can0  0CF00417   [8]  FF FF FF FE 15 FF FF FF
  can0  0B0BB341   [8]  00 00 00 00 00 00 00 00
  can0  0B0BB241   [8]  12 09 27 00 09 90 01 C0
  can0  0CF00417   [8]  FF FF FF FE 15 FF FF FF
  can0  0CF00317   [8]  FF FF 1E FF FF FF FF FF
  can0  0B0BB241   [8]  22 09 27 00 09 90 01 C0
  can0  0B0BB341   [8]  00 00 00 00 00 00 00 00
  can0  0CF00417   [8]  FF FF FF F9 15 FF FF FF
  can0  0B0BB241   [8]  22 09 27 00 09 90 01 C0
  can0  0CF00417   [8]  FF FF FF F4 15 FF FF FF
  can0  0B0BB341   [8]  00 00 00 00 00 00 00 00
  can0  0CF00317   [8]  FF FF 1E FF FF FF FF FF
  can0  0B0BB241   [8]  12 09 27 00 09 90 01 C0
  can0  0B0BB541   [8]  01 01 00 00 00 00 00 00
  can0  0CF00417   [8]  FF FF FF F4 15 FF FF FF
  can0  18FFAC17   [8]  02 16 80 51 FF FF FF 00
  can0  18FEF117   [8]  F7 00 00 FF FF FF FF FF
  can0  18FEF217   [8]  8E 00 FF FF FF FF FF FF
  can0  18FFAD17   [8]  02 00 00 E9 7F FA 7F 04
  can0  0B0BB241   [8]  22 09 27 00 09 90 01 C0
  can0  0B0BB341   [8]  00 00 00 00 00 00 00 00
  can0  0CF00417   [8]  FF FF FF E1 15 FF FF FF
  can0  0B0BB241   [8]  12 09 27 00 09 90 01 C0
  can0  0CF00417   [8]  FF FF FF D3 15 FF FF FF
  can0  0B0BB341   [8]  00 00 00 00 00 00 00 00
  can0  0CF00317   [8]  FF FF 20 FF FF FF FF FF
  can0  0B0BB241   [8]  12 09 27 00 09 90 01 C0
  can0  0CF00417   [8]  FF FF FF D3 15 FF FF FF
  can0  0B0BB241   [8]  22 09 27 00 09 90 01 C0
  can0  0B0BB341   [8]  00 00 00 00 00 00 00 00
  can0  0CF00417   [8]  FF FF FF D3 15 FF FF FF
  can0  0CF00317   [8]  FF FF 20 FF FF FF FF FF
  can0  0B0BB241   [8]  12 09 27 00 09 90 01 C0
  can0  0B0BB541   [8]  01 01 00 00 00 00 00 00
  can0  0CF00417   [8]  FF FF FF CE 15 FF FF FF
  can0  0B0BB341   [8]  00 00 00 00 00 00 00 00
  can0  18FEF117   [8]  F7 00 00 FF FF FF FF FF
  can0  18FEF217   [8]  91 00 FF FF FF FF FF FF
  can0  18FFAC17   [8]  02 16 80 51 FF FF FF 00
  can0  18FFAD17   [8]  03 FA 09 00 00 00 00 FF
  can0  0B0BB241   [8]  22 09 27 00 09 90 01 C0
  can0  0CF00417   [8]  FF FF FF C9 15 FF FF FF
  can0  0B0BB241   [8]  22 09 27 00 09 90 01 C0
  can0  0B0BB341   [8]  00 00 00 00 00 00 00 00
  can0  0CF00417   [8]  FF FF FF C9 15 FF FF FF
  can0  0CF00317   [8]  FF FF 20 FF FF FF FF FF
  can0  0B0BB241   [8]  12 09 27 00 09 90 01 C0
  can0  0CF00417   [8]  FF FF FF D8 15 FF FF FF
  can0  0B0BB341   [8]  00 00 00 00 00 00 00 00
  can0  0B0BB241   [8]  22 09 27 00 09 90 01 C0
  can0  0CF00417   [8]  FF FF FF E1 15 FF FF FF
  can0  0CF00317   [8]  FF FF 1F FF FF FF FF FF
  can0  0B0BB241   [8]  12 09 27 00 09 90 01 C0
  can0  0B0BB541   [8]  01 01 00 00 00 00 00 00
  can0  0B0BB341   [8]  00 00 00 00 00 00 00 00
  can0  0CF00417   [8]  FF FF FF E1 15 FF FF FF
  can0  18FFAC17   [8]  02 16 80 51 FF FF FF 00
  can0  18FEF117   [8]  F7 00 00 FF FF FF FF FF
  can0  18FEF217   [8]  94 00 FF FF FF FF FF FF
  can0  18FFAD17   [8]  00 1B CA 00 00 18 0C 06
  can0  0B0BB241   [8]  12 09 27 00 09 90 01 C0
  can0  0CF00417   [8]  FF FF FF DC 15 FF FF FF
  can0  0B0BB341   [8]  00 00 00 00 00 00 00 00
  can0  0B0BB241   [8]  22 09 27 00 09 90 01 C0
  can0  0CF00417   [8]  FF FF FF E6 15 FF FF FF
  can0  0CF00317   [8]  FF FF 1F FF FF FF FF FF
  can0  0B0BB241   [8]  12 09 27 00 09 90 01 C0
  can0  0B0BB341   [8]  00 00 00 00 00 00 00 00
  can0  0CF00417   [8]  FF FF FF E6 15 FF FF FF
  can0  0B0BB241   [8]  22 09 27 00 09 90 01 C0
  can0  0CF00417   [8]  FF FF FF DC 15 FF FF FF
  can0  0B0BB341   [8]  00 00 00 00 00 00 00 00
  can0  0CF00317   [8]  FF FF 1F FF FF FF FF FF
  can0  18FEE841   [8]  FF FF 00 00 FF FF F7 4E
  can0  0B0BB241   [8]  22 09 27 00 09 90 01 C0
  can0  0B0BB541   [8]  01 01 00 00 00 00 00 00
  can0  19FA0341   [8]  A0 FF 32 00 50 00 5A 00
  can0  0CF00417   [8]  FF FF FF E1 15 FF FF FF
  can0  18FFAC17   [8]  02 16 80 51 FF FF FF 00
  can0  18FECA17   [8]  C3 FF FF FF FF FF FF FF
  can0  18FEE717   [8]  64 00 00 00 FF FF FF FF
  can0  18FEF117   [8]  F7 00 00 FF FF FF FF FF
  can0  18FEF217   [8]  92 00 FF FF FF FF FF FF
  can0  18FEF517   [8]  FF FF FF 80 25 FF FF FF
  can0  18FEFC17   [8]  FF 3D FF FF FF FF FF FF
  can0  18FFAD17   [8]  01 00 00 00 00 0A 02 20
  can0  0B0BB241   [8]  12 09 27 00 09 90 01 C0
  can0  0B0BB341   [8]  00 00 00 00 00 00 00 00
  can0  0CF00417   [8]  FF FF FF E6 15 FF FF FF
  can0  0B0BB241   [8]  22 09 27 00 09 90 01 C0
  can0  0CF00417   [8]  FF FF FF E6 15 FF FF FF
  can0  0B0BB341   [8]  00 00 00 00 00 00 00 00
  can0  0CF00317   [8]  FF FF 20 FF FF FF FF FF
  can0  0B0BB241   [8]  12 09 27 00 09 90 01 C0
  can0  0CF00417   [8]  FF FF FF D3 15 FF FF FF
  can0  0B0BB241   [8]  12 09 27 00 09 90 01 C0
  can0  0B0BB341   [8]  00 00 00 00 00 00 00 00
  can0  0CF00417   [8]  FF FF FF D8 15 FF FF FF
  can0  0CF00317   [8]  FF FF 20 FF FF FF FF FF
  can0  0B0BB241   [8]  22 09 27 00 09 90 01 C0
  can0  0B0BB541   [8]  01 01 00 00 00 00 00 00
  can0  0CF00417   [8]  FF FF FF D8 15 FF FF FF
  can0  0B0BB341   [8]  00 00 00 00 00 00 00 00
  can0  18FEF117   [8]  F7 00 00 FF FF FF FF FF
  can0  18FEF217   [8]  91 00 FF FF FF FF FF FF
  can0  18FFAC17   [8]  02 16 80 51 FF FF FF 00
  can0  18FFAD17   [8]  02 00 00 E9 7F FA 7F 04
  can0  0B0BB241   [8]  12 09 27 00 09 90 01 C0
  can0  0CF00417   [8]  FF FF FF D8 15 FF FF FF
  can0  0B0BB241   [8]  22 09 27 00 09 90 01 C0
  can0  0B0BB341   [8]  00 00 00 00 00 00 00 00
  can0  0CF00417   [8]  FF FF FF DC 15 FF FF FF
  can0  0CF00317   [8]  FF FF 20 FF FF FF FF FF
  can0  0B0BB241   [8]  22 09 27 00 09 90 01 C0
  can0  0CF00417   [8]  FF FF FF DC 15 FF FF FF
  can0  0B0BB341   [8]  00 00 00 00 00 00 00 00
  can0  0B0BB241   [8]  12 09 27 00 09 90 01 C0
  can0  0B0BB441   [8]  01 01 06 0A 0A 6A 38 27
  can0  0B0BB441   [8]  01 01 06 0A 0A 6A 38 27
  can0  0B0BB441   [8]  01 01 06 0A 0A 6A 38 27
  can0  0CF00417   [8]  FF FF FF E1 15 FF FF FF
  can0  0CF00317   [8]  FF FF 1F FF FF FF FF FF
  can0  0B0BB241   [8]  22 09 27 00 09 90 01 C0
  can0  0B0BB541   [8]  01 01 00 00 00 00 00 00
  can0  0B0BB441   [8]  01 01 06 0A 0A 6A 38 27
  can0  0B0BB441   [8]  01 01 06 0A 0A 6A 38 27
  can0  0B0BB341   [8]  00 00 00 00 00 00 00 00
  can0  0B0BB441   [8]  01 01 06 0A 0A 6A 38 27
  can0  0CF00417   [8]  FF FF FF E1 15 FF FF FF
  can0  18FFAC17   [8]  02 16 80 51 FF FF FF 00
  can0  18FEF117   [8]  F7 00 00 FF FF FF FF FF
  can0  18FEF217   [8]  93 00 FF FF FF FF FF FF
  can0  18FFAD17   [8]  03 FA 09 00 00 00 00 FF
  can0  0B0BB441   [8]  01 01 06 0A 0A 6A 38 27
  can0  0B0BB441   [8]  01 01 06 0A 0A 6A 38 27
  can0  0B0BB241   [8]  12 09 27 00 09 90 01 C0
  can0  0B0BB441   [8]  01 01 06 0A 0A 6A 38 27
  can0  0B0BB441   [8]  01 01 06 0A 0A 6A 38 27
  can0  19FF2941   [8]  AA 05 FF FF FF FF FF FF
  can0  0B0BB441   [8]  01 01 06 0A 0A 6A 38 27
  can0  18FEE641   [8]  90 02 03 0C 18 27 FF F9
  can0  0CF00417   [8]  FF FF FF EB 15 FF FF FF
  can0  0B0BB341   [8]  00 00 00 00 00 00 00 00
  can0  18FEF341   [8]  A5 05 7E 79 D9 DC E9 BC
  can0  0B0BB241   [8]  12 09 27 00 09 90 01 C0
  can0  19FF2941   [8]  AA 05 FF FF FF FF FF FF
  can0  0B0BB441   [8]  01 01 06 0A 0A 6A 38 27
  can0  18FEE641   [8]  90 02 03 0C 18 27 FF F9
  can0  18FEF341   [8]  A5 05 7E 79 D9 DC E9 BC
  can0  0B0BB441   [8]  01 01 06 0A 0A 6A 38 27
  can0  0B0BB441   [8]  01 01 06 0A 0A 6A 38 27
  can0  0CF00417   [8]  FF FF FF EB 15 FF FF FF
  can0  0CF00317   [8]  FF FF 20 FF FF FF FF FF
  can0  0B0BB441   [8]  01 01 06 0A 0A 6A 38 27
  can0  0B0BB441   [8]  01 01 06 0A 0A 6A 38 27
  can0  0B0BB241   [8]  22 09 27 00 09 90 01 C0
  can0  0B0BB341   [8]  00 00 00 00 00 00 00 00
  can0  0B0BB441   [8]  01 01 06 0A 0A 6A 38 27
  can0  0B0BB441   [8]  01 01 06 0A 0A 6A 38 27
  can0  0CF00417   [8]  FF FF FF D8 15 FF FF FF
  can0  0B0BB241   [8]  23 09 27 00 09 90 01 C0
  can0  0B0BB441   [8]  01 01 06 0A 0A 6A 38 27
  can0  0B0BB441   [8]  01 01 06 0A 0A 6A 38 27
  can0  0B0BB441   [8]  01 01 06 0A 0A 6A 38 27
  can0  0CF00417   [8]  FF FF FF C4 15 FF FF FF
  can0  0B0BB341   [8]  00 00 00 00 00 00 00 00
  can0  0CF00317   [8]  FF FF 20 FF FF FF FF FF
  can0  0B0BB241   [8]  23 09 27 00 09 90 01 C0
  can0  0B0BB541   [8]  01 01 00 00 00 00 00 00
  can0  0CF00417   [8]  FF FF FF C4 15 FF FF FF
  can0  18FFAC17   [8]  02 16 80 51 FF FF FF 00
  can0  18FEF117   [8]  F7 00 00 FF FF FF FF FF
  can0  18FEF217   [8]  90 00 FF FF FF FF FF FF
  can0  18FFAD17   [8]  00 1C CA 00 00 18 0C 06
  can0  0B0BB241   [8]  23 09 27 00 09 90 01 C0
  can0  0B0BB341   [8]  00 00 00 00 00 00 00 00
  can0  0CF00417   [8]  FF FF FF CE 15 FF FF FF
  can0  0B0BB241   [8]  23 09 27 00 09 90 01 C0
  can0  0CF00417   [8]  FF FF FF D3 15 FF FF FF
  can0  0B0BB341   [8]  00 00 00 00 00 00 00 00
  can0  0CF00317   [8]  FF FF 20 FF FF FF FF FF
  can0  0B0BB241   [8]  23 09 27 00 09 90 01 C0
  can0  0CF00417   [8]  FF FF FF D3 15 FF FF FF
  can0  0B0BB241   [8]  23 09 27 00 09 90 01 C0
  can0  0B0BB341   [8]  00 00 00 00 00 00 00 00
  can0  0CF00417   [8]  FF FF FF E6 15 FF FF FF
  can0  0CF00317   [8]  FF FF 1E FF FF FF FF FF
  can0  0B0BB241   [8]  23 09 27 00 09 90 01 C0
  can0  0B0BB541   [8]  01 01 00 00 00 00 00 00
  can0  0CF00417   [8]  FF FF FF FE 15 FF FF FF
  can0  0B0BB341   [8]  00 00 00 00 00 00 00 00
  can0  18FEF117   [8]  F7 00 00 FF FF FF FF FF
  can0  18FEF217   [8]  94 00 FF FF FF FF FF FF
  can0  18FFAC17   [8]  02 16 80 51 FF FF FF 00
  can0  18FFAD17   [8]  01 00 00 00 00 0A 02 20
  can0  0B0BB241   [8]  23 09 27 00 09 90 01 C0
  can0  0CF00417   [8]  FF FF FF 03 16 FF FF FF
  can0  0B0BB241   [8]  23 09 27 00 09 90 01 C0
  can0  0B0BB341   [8]  00 00 00 00 00 00 00 00
  can0  0CF00417   [8]  FF FF FF 03 16 FF FF FF
  can0  0CF00317   [8]  FF FF 1D FF FF FF FF FF
  can0  0B0BB241   [8]  23 09 27 00 09 90 01 C0
  can0  0CF00417   [8]  FF FF FF 0C 16 FF FF FF
  can0  0B0BB341   [8]  00 00 00 00 00 00 00 00
  can0  0B0BB241   [8]  23 09 27 00 09 90 01 C0
  can0  0CF00417   [8]  FF FF FF 08 16 FF FF FF
  can0  0CF00317   [8]  FF FF 1A FF FF FF FF FF
  can0  18FEE841   [8]  FF FF 00 00 FF FF F7 4E
  can0  0B0BB241   [8]  23 09 27 00 09 90 01 C0
  can0  0B0BB541   [8]  01 01 00 00 00 00 00 00
  can0  0B0BB341   [8]  00 00 00 00 00 00 00 00
  can0  0CF00417   [8]  FF FF FF 08 16 FF FF FF
  can0  18FFAC17   [8]  02 16 80 51 FF FF FF 00
  can0  18FEF117   [8]  F7 00 00 FF FF FF FF FF
  can0  18FEF217   [8]  8D 00 FF FF FF FF FF FF
  can0  18FFAD17   [8]  02 00 00 E9 7F FA 7F 04
  can0  0B0BB241   [8]  13 09 27 00 09 90 01 C0
  can0  0CF00417   [8]  FF FF FF F4 15 FF FF FF
  can0  0B0BB341   [8]  00 00 00 00 00 00 00 00
  can0  0B0BB241   [8]  23 09 27 00 09 90 01 C0
  can0  0CF00417   [8]  FF FF FF F0 15 FF FF FF
  can0  0CF00317   [8]  FF FF 1F FF FF FF FF FF
  can0  0B0BB241   [8]  23 09 27 00 09 90 01 C0
  can0  0B0BB341   [8]  00 00 00 00 00 00 00 00
  can0  0CF00417   [8]  FF FF FF F0 15 FF FF FF
  can0  0B0BB241   [8]  13 09 27 00 09 90 01 C0
  can0  0CF00417   [8]  FF FF FF D3 15 FF FF FF
  can0  0B0BB341   [8]  00 00 00 00 00 00 00 00
  can0  0CF00317   [8]  FF FF 20 FF FF FF FF FF
  can0  0B0BB241   [8]  23 09 27 00 09 90 01 C0
  can0  0B0BB541   [8]  01 01 00 00 00 00 00 00
  can0  0CF00417   [8]  FF FF FF C0 15 FF FF FF
  can0  18FFAC17   [8]  02 16 80 51 FF FF FF 00
  can0  18FEF117   [8]  F7 00 00 FF FF FF FF FF
  can0  18FEF217   [8]  8D 00 FF FF FF FF FF FF
  can0  18FFAD17   [8]  03 FA 09 00 00 00 00 FF
  can0  0B0BB241   [8]  13 09 27 00 09 90 01 C0
  can0  0B0BB341   [8]  00 00 00 00 00 00 00 00
  can0  0CF00417   [8]  FF FF FF C0 15 FF FF FF
  can0  0B0BB241   [8]  13 09 27 00 09 90 01 C0
  can0  0CF00417   [8]  FF FF FF C0 15 FF FF FF
  can0  0B0BB341   [8]  00 00 00 00 00 00 00 00
  can0  0CF00317   [8]  FF FF 20 FF FF FF FF FF
  can0  0B0BB241   [8]  23 09 27 00 09 90 01 C0
  can0  0CF00417   [8]  FF FF FF C4 15 FF FF FF
  can0  0B0BB241   [8]  12 09 27 00 09 90 01 C0
  can0  0B0BB341   [8]  00 00 00 00 00 00 00 00
  can0  0CF00417   [8]  FF FF FF C9 15 FF FF FF
  can0  0CF00317   [8]  FF FF 20 FF FF FF FF FF
  can0  0B0BB241   [8]  22 09 27 00 09 90 01 C0
  can0  0B0BB541   [8]  01 01 00 00 00 00 00 00
  can0  19FA0441   [8]  20 7B A1 FF 0A 8F 9C 18
  can0  0CF00417   [8]  FF FF FF C9 15 FF FF FF
  can0  0B0BB341   [8]  00 00 00 00 00 00 00 00
  can0  18FEF117   [8]  F7 00 00 FF FF FF FF FF
  can0  18FEF217   [8]  95 00 FF FF FF FF FF FF
  can0  18FFAC17   [8]  02 16 80 51 FF FF FF 00
  can0  18FFAD17   [8]  00 1D CA 00 00 18 0C 06
  can0  0B0BB241   [8]  22 09 27 00 09 90 01 C0
  can0  19FA0441   [8]  21 7E 9A EC 13 FF FF FF
  can0  0CF00417   [8]  FF FF FF D3 15 FF FF FF
  can0  0B0BB241   [8]  12 09 27 00 09 90 01 C0
  can0  0B0BB341   [8]  00 00 00 00 00 00 00 00
  can0  0CF00417   [8]  FF FF FF C9 15 FF FF FF
  can0  0CF00317   [8]  FF FF 20 FF FF FF FF FF
  can0  0B0BB241   [8]  22 09 27 00 09 90 01 C0
  can0  19FA0441   [8]  22 FF 02 00 00 00 00 00
  can0  0CF00417   [8]  FF FF FF C9 15 FF FF FF
  can0  0B0BB341   [8]  00 00 00 00 00 00 00 00
  can0  0B0BB241   [8]  12 09 27 00 09 90 01 C0
  can0  0CF00417   [8]  FF FF FF C9 15 FF FF FF
  can0  0CF00317   [8]  FF FF 20 FF FF FF FF FF
  can0  19FA0441   [8]  23 CC 10 FF FF FF FF 01
  can0  0B0BB241   [8]  12 09 27 00 09 90 01 C0
  can0  0B0BB541   [8]  01 01 00 00 00 00 00 00
  can0  0B0BB341   [8]  00 00 00 00 00 00 00 00
  can0  0CF00417   [8]  FF FF FF D8 15 FF FF FF
  can0  18FFAC17   [8]  02 16 80 51 FF FF FF 00
  can0  18FEF117   [8]  F7 00 00 FF FF FF FF FF
  can0  18FEF217   [8]  93 00 FF FF FF FF FF FF
  can0  18FFAD17   [8]  01 00 00 00 00 0A 02 21
  can0  0B0BB241   [8]  22 09 27 00 09 90 01 C0
  can0  19FA0441   [8]  24 83 AC 0D 27 06 88 13
  can0  0CF00417   [8]  FF FF FF E1 15 FF FF FF
  can0  0B0BB341   [8]  00 00 00 00 00 00 00 00
  can0  0B0BB241   [8]  12 09 27 00 09 90 01 C0
  can0  0CF00417   [8]  FF FF FF E1 15 FF FF FF
  can0  0CF00317   [8]  FF FF 20 FF FF FF FF FF
  can0  0B0BB241   [8]  22 09 27 00 09 90 01 C0
  can0  19FA0441   [8]  25 FF FF FF FF 02 8E B3
  can0  0B0BB341   [8]  00 00 00 00 00 00 00 00
  can0  0CF00417   [8]  FF FF FF DC 15 FF FF FF
  can0  0B0BB241   [8]  22 09 27 00 09 90 01 C0
  can0  19FA0441   [8]  26 29 E7 E0 EC 13 FF FF
  can0  0CF00417   [8]  FF FF FF E1 15 FF FF FF
  can0  0B0BB341   [8]  00 00 00 00 00 00 00 00
  can0  0CF00317   [8]  FF FF 1F FF FF FF FF FF
  can0  0B0BB241   [8]  12 09 27 00 09 90 01 C0
  can0  0B0BB541   [8]  01 01 00 00 00 00 00 00
  can0  0CF00417   [8]  FF FF FF E1 15 FF FF FF
  can0  18FFAC17   [8]  02 16 80 51 FF FF FF 00
  can0  18FEF117   [8]  F7 00 00 FF FF FF FF FF
  can0  18FEF217   [8]  91 00 FF FF FF FF FF FF
  can0  18FFAD17   [8]  02 00 00 E9 7F FA 7F 04
  can0  0B0BB241   [8]  22 09 27 00 09 90 01 C0
  can0  19FA0441   [8]  27 FF FF 02 8D B9 0F 85
  can0  0B0BB341   [8]  00 00 00 00 00 00 00 00
  can0  0CF00417   [8]  FF FF FF F0 15 FF FF FF
  can0  0B0BB241   [8]  12 09 27 00 09 90 01 C0
  can0  0CF00417   [8]  FF FF FF E6 15 FF FF FF
  can0  0B0BB341   [8]  00 00 00 00 00 00 00 00
  can0  0CF00317   [8]  FF FF 1F FF FF FF FF FF
  can0  19FA0441   [8]  28 07 50 14 FF FF FF FF
  can0  0B0BB241   [8]  12 09 27 00 09 90 01 C0
  can0  0CF00417   [8]  FF FF FF E6 15 FF FF FF
  can0  0B0BB241   [8]  22 09 27 00 09 90 01 C0
  can0  0B0BB341   [8]  00 00 00 00 00 00 00 00
  can0  19FA0441   [8]  29 02 82 4B 19 1E 2D 88
  can0  0CF00417   [8]  FF FF FF E1 15 FF FF FF
  can0  0CF00317   [8]  FF FF 20 FF FF FF FF FF
  can0  18FEE841   [8]  FF FF 00 00 FF FF F7 4E
  can0  0B0BB241   [8]  12 09 27 00 09 90 01 C0
  can0  0B0BB541   [8]  01 01 00 00 00 00 00 00
  can0  19FA0341   [8]  A1 FF 32 00 50 00 5A 00
  can0  0CF00417   [8]  FF FF FF D8 15 FF FF FF
  can0  0B0BB341   [8]  00 00 00 00 00 00 00 00
  can0  18FECA17   [8]  C3 FF FF FF FF FF FF FF
  can0  18FEE717   [8]  64 00 00 00 FF FF FF FF
  can0  18FEF117   [8]  F7 00 00 FF FF FF FF FF
  can0  18FEF217   [8]  8F 00 FF FF FF FF FF FF
  can0  18FEF517   [8]  FF FF FF 80 25 FF FF FF
  can0  18FEFC17   [8]  FF 3D FF FF FF FF FF FF
  can0  18FFAC17   [8]  02 16 80 51 FF FF FF 00
  can0  18FFAD17   [8]  03 FA 09 00 00 00 00 FF
  can0  0B0BB241   [8]  22 09 27 00 09 90 01 C0
  can0  19FA0441   [8]  2A 13 FF FF FF FF 02 99
  can0  0CF00417   [8]  FF FF FF D3 15 FF FF FF
  can0  0B0BB241   [8]  22 09 27 00 09 90 01 C0
  can0  0B0BB341   [8]  00 00 00 00 00 00 00 00
  can0  19FA0441   [8]  2B AC 0D 09 88 F8 11 FF
  can0  0CF00417   [8]  FF FF FF D3 15 FF FF FF
  can0  0CF00317   [8]  FF FF 20 FF FF FF FF FF
  can0  0B0BB241   [8]  12 09 27 00 09 90 01 C0
  can0  0CF00417   [8]  FF FF FF D8 15 FF FF FF
  can0  0B0BB341   [8]  00 00 00 00 00 00 00 00
  can0  0B0BB241   [8]  22 09 27 00 09 90 01 C0
  can0  19FA0441   [8]  2C FF FF FF 02 98 BC 02
  can0  0CF00417   [8]  FF FF FF DC 15 FF FF FF
  can0  0CF00317   [8]  FF FF 20 FF FF FF FF FF
  can0  0B0BB241   [8]  12 09 27 00 09 90 01 C0
  can0  0B0BB541   [8]  01 01 00 00 00 00 00 00
  can0  0B0BB341   [8]  00 00 00 00 00 00 00 00
  can0  0CF00417   [8]  FF FF FF DC 15 FF FF FF
  can0  18FFAC17   [8]  02 16 80 51 FF FF FF 00
  can0  18FEF117   [8]  F7 00 00 FF FF FF FF FF
  can0  18FEF217   [8]  93 00 FF FF FF FF FF FF
  can0  18FFAD17   [8]  00 1E CA 00 00 18 0C 06
  can0  19FA0441   [8]  2D CE 63 48 0D FF FF FF
  can0  0B0BB241   [8]  12 09 27 00 09 90 01 C0
  can0  0CF00417   [8]  FF FF FF E6 15 FF FF FF
  can0  0B0BB341   [8]  00 00 00 00 00 00 00 00
  can0  0B0BB241   [8]  22 09 27 00 09 90 01 C0
  can0  19FA0441   [8]  2E FF 01 92 27 06 95 AB
  can0  0CF00417   [8]  FF FF FF F4 15 FF FF FF
  can0  0CF00317   [8]  FF FF 1E FF FF FF FF FF
  can0  0B0BB241   [8]  12 09 27 00 09 90 01 C0
  can0  0B0BB341   [8]  00 00 00 00 00 00 00 00
  can0  0CF00417   [8]  FF FF FF F4 15 FF FF FF
  can0  0B0BB241   [8]  22 09 27 00 09 90 01 C0
  can0  19FA0441   [8]  2F C0 12 FF FF FF FF 02
  can0  0B0BB441   [8]  01 01 06 0A 0A 6A 38 27
  can0  0B0BB441   [8]  01 01 06 0A 0A 6A 38 27
  can0  0B0BB441   [8]  01 01 06 0A 0A 6A 38 27
  can0  0CF00417   [8]  FF FF FF F4 15 FF FF FF
  can0  0B0BB341   [8]  00 00 00 00 00 00 00 00
  can0  0CF00317   [8]  FF FF 1F FF FF FF FF FF
  can0  0B0BB241   [8]  22 09 27 00 09 90 01 C0
  can0  0B0BB441   [8]  01 01 06 0A 0A 6A 38 27
  can0  0B0BB541   [8]  01 01 00 00 00 00 00 00
  can0  0B0BB441   [8]  01 01 06 0A 0A 6A 38 27
  can0  0B0BB441   [8]  01 01 06 0A 0A 6A 38 27
  can0  19FA0441   [8]  30 89 E3 08 66 53 C0 12
  can0  0CF00417   [8]  FF FF FF F0 15 FF FF FF
  can0  18FFAC17   [8]  02 16 80 51 FF FF FF 00
  can0  18FEF117   [8]  F7 00 00 FF FF FF FF FF
  can0  0B0BB441   [8]  01 01 06 0A 0A 6A 38 27
  can0  0B0BB441   [8]  01 01 06 0A 0A 6A 38 27
  can0  18FEF217   [8]  90 00 FF FF FF FF FF FF
  can0  18FFAD17   [8]  01 00 00 00 00 0A 02 21
  can0  0B0BB241   [8]  12 09 27 00 09 90 01 C0
  can0  0B0BB441   [8]  01 01 06 0A 0A 6A 38 27
  can0  0B0BB341   [8]  00 00 00 00 00 00 00 00
  can0  0B0BB441   [8]  01 01 06 0A 0A 6A 38 27
  can0  0B0BB441   [8]  01 01 06 0A 0A 6A 38 27
  can0  18FEE641   [8]  94 02 03 0C 18 27 FF F9
  can0  18FEF341   [8]  A5 05 7E 79 D9 DC E9 BC
  can0  19FF2941   [8]  AA 05 FF FF FF FF FF FF
  can0  0CF00417   [8]  FF FF FF EB 15 FF FF FF
  can0  0B0BB241   [8]  22 09 27 00 09 90 01 C0
  can0  18FEE641   [8]  94 02 03 0C 18 27 FF F9
  can0  0B0BB441   [8]  01 01 06 0A 0A 6A 38 27
  can0  18FEF341   [8]  A5 05 7E 79 D9 DC E9 BC
  can0  19FF2941   [8]  AA 05 FF FF FF FF FF FF
  can0  19FA0441   [8]  31 FF FF FF FF 02 FF FF
  can0  0B0BB441   [8]  01 01 06 0A 0A 6A 38 27
  can0  0B0BB441   [8]  01 01 06 0A 0A 6A 38 27
  can0  0CF00417   [8]  FF FF FF EB 15 FF FF FF
  can0  0B0BB341   [8]  00 00 00 00 00 00 00 00
  can0  0CF00317   [8]  FF FF 1E FF FF FF FF FF
  can0  0B0BB441   [8]  01 01 06 0A 0A 6A 38 27
  can0  0B0BB241   [8]  12 09 27 00 09 90 01 C0
  can0  0B0BB441   [8]  01 01 06 0A 0A 6A 38 27
  can0  0B0BB441   [8]  01 01 06 0A 0A 6A 38 27
  can0  0B0BB441   [8]  01 01 06 0A 0A 6A 38 27
  can0  0CF00417   [8]  FF FF FF F4 15 FF FF FF
  can0  0B0BB241   [8]  12 09 27 00 09 90 01 C0
  can0  0B0BB441   [8]  01 01 06 0A 0A 6A 38 27
  can0  0B0BB441   [8]  01 01 06 0A 0A 6A 38 27
  can0  0B0BB341   [8]  00 00 00 00 00 00 00 00
  can0  0B0BB441   [8]  01 01 06 0A 0A 6A 38 27
  can0  0CF00417   [8]  FF FF FF E6 15 FF FF FF
  can0  0CF00317   [8]  FF FF 1F FF FF FF FF FF
  can0  0B0BB241   [8]  22 09 27 00 09 90 01 C0
  can0  0B0BB541   [8]  01 01 00 00 00 00 00 00
  can0  0CF00417   [8]  FF FF FF E6 15 FF FF FF
  can0  0B0BB341   [8]  00 00 00 00 00 00 00 00
  can0  18FEF117   [8]  F7 00 00 FF FF FF FF FF
  can0  18FEF217   [8]  8F 00 FF FF FF FF FF FF
  can0  18FFAC17   [8]  02 16 80 51 FF FF FF 00
  can0  18FFAD17   [8]  02 00 00 E9 7F FA 7F 04
  can0  0B0BB241   [8]  12 09 27 00 09 90 01 C0
  can0  0CF00417   [8]  FF FF FF EB 15 FF FF FF
  can0  0B0BB241   [8]  12 09 27 00 09 90 01 C0
  can0  0B0BB341   [8]  00 00 00 00 00 00 00 00
  can0  0CF00417   [8]  FF FF FF E6 15 FF FF FF
  can0  0CF00317   [8]  FF FF 1F FF FF FF FF FF
  can0  0B0BB241   [8]  22 09 27 00 09 90 01 C0
  can0  0CF00417   [8]  FF FF FF E6 15 FF FF FF
  can0  0B0BB341   [8]  00 00 00 00 00 00 00 00
  can0  0B0BB241   [8]  12 09 27 00 09 90 01 C0
  can0  0CF00417   [8]  FF FF FF D8 15 FF FF FF
  can0  0CF00317   [8]  FF FF 20 FF FF FF FF FF
  can0  0B0BB241   [8]  22 09 27 00 09 90 01 C0
  can0  0B0BB541   [8]  01 01 00 00 00 00 00 00
  can0  0B0BB341   [8]  00 00 00 00 00 00 00 00
  can0  0CF00417   [8]  FF FF FF C9 15 FF FF FF
  can0  18FFAC17   [8]  02 16 80 51 FF FF FF 00
  can0  18FEF117   [8]  F7 00 00 FF FF FF FF FF
  can0  18FEF217   [8]  8E 00 FF FF FF FF FF FF
  can0  18FFAD17   [8]  03 FA 09 00 00 00 00 FF
  can0  0B0BB241   [8]  22 09 27 00 09 90 01 C0
  can0  0CF00417   [8]  FF FF FF C9 15 FF FF FF
  can0  0B0BB341   [8]  00 00 00 00 00 00 00 00
  can0  0B0BB241   [8]  12 09 27 00 09 90 01 C0
  can0  0CF00417   [8]  FF FF FF C9 15 FF FF FF
  can0  0CF00317   [8]  FF FF 20 FF FF FF FF FF
  can0  0B0BB241   [8]  22 09 27 00 09 90 01 C0
  can0  0B0BB341   [8]  00 00 00 00 00 00 00 00
  can0  0CF00417   [8]  FF FF FF C4 15 FF FF FF
  can0  0B0BB241   [8]  12 09 27 00 09 90 01 C0
  can0  0CF00417   [8]  FF FF FF B6 15 FF FF FF
  can0  0B0BB341   [8]  00 00 00 00 00 00 00 00
  can0  0CF00317   [8]  FF FF 23 FF FF FF FF FF
  can0  18FEE841   [8]  FF FF 00 00 FF FF F7 4E
  can0  0B0BB241   [8]  12 09 27 00 09 90 01 C0
  can0  0B0BB541   [8]  01 01 00 00 00 00 00 00
  can0  0CF00417   [8]  FF FF FF B6 15 FF FF FF
  can0  18FFAC17   [8]  02 16 80 51 FF FF FF 00
  can0  18FEF117   [8]  F7 00 00 FF FF FF FF FF
  can0  18FEF217   [8]  93 00 FF FF FF FF FF FF
  can0  18FFAD17   [8]  00 1F CA 00 00 18 0C 06
  can0  0B0BB241   [8]  22 09 27 00 09 90 01 C0
  can0  0B0BB341   [8]  00 00 00 00 00 00 00 00
  can0  0CF00417   [8]  FF FF FF BB 15 FF FF FF
  can0  0B0BB241   [8]  12 09 27 00 09 90 01 C0
  can0  0CF00417   [8]  FF FF FF C0 15 FF FF FF
  can0  0B0BB341   [8]  00 00 00 00 00 00 00 00
  can0  0CF00317   [8]  FF FF 23 FF FF FF FF FF
  can0  0B0BB241   [8]  22 09 27 00 09 90 01 C0
  can0  0CF00417   [8]  FF FF FF C0 15 FF FF FF
  can0  0B0BB241   [8]  22 09 27 00 09 90 01 C0
  can0  0B0BB341   [8]  00 00 00 00 00 00 00 00
  can0  0CF00417   [8]  FF FF FF C4 15 FF FF FF
  can0  0CF00317   [8]  FF FF 23 FF FF FF FF FF
  can0  0B0BB241   [8]  12 09 27 00 09 90 01 C0
  can0  0B0BB541   [8]  01 01 00 00 00 00 00 00
  can0  0CF00417   [8]  FF FF FF D8 15 FF FF FF
  can0  0B0BB341   [8]  00 00 00 00 00 00 00 00
  can0  18FEF117   [8]  F7 00 00 FF FF FF FF FF
  can0  18FEF217   [8]  96 00 FF FF FF FF FF FF
  can0  18FFAC17   [8]  02 16 80 51 FF FF FF 00
  can0  18FFAD17   [8]  01 00 00 00 00 0A 02 21
  can0  0B0BB241   [8]  22 09 27 00 09 90 01 C0
  can0  0CF00417   [8]  FF FF FF E1 15 FF FF FF
  can0  0B0BB241   [8]  12 09 27 00 09 90 01 C0
  can0  0B0BB341   [8]  00 00 00 00 00 00 00 00
  can0  0CF00417   [8]  FF FF FF E1 15 FF FF FF
  can0  0CF00317   [8]  FF FF 1F FF FF FF FF FF
  can0  0B0BB241   [8]  12 09 27 00 09 90 01 C0
  can0  0CF00417   [8]  FF FF FF EB 15 FF FF FF
  can0  0B0BB341   [8]  00 00 00 00 00 00 00 00
  can0  0B0BB241   [8]  22 09 27 00 09 90 01 C0
  can0  0CF00417   [8]  FF FF FF E6 15 FF FF FF
  can0  0CF00317   [8]  FF FF 1F FF FF FF FF FF
  can0  0B0BB241   [8]  12 09 27 00 09 90 01 C0
  can0  0B0BB541   [8]  01 01 00 00 00 00 00 00
  can0  0B0BB341   [8]  00 00 00 00 00 00 00 00
  can0  0CF00417   [8]  FF FF FF E6 15 FF FF FF
  can0  18FFAC17   [8]  02 16 80 51 FF FF FF 00
  can0  18FEF117   [8]  F7 00 00 FF FF FF FF FF
  can0  18FEF217   [8]  92 00 FF FF FF FF FF FF
  can0  18FFAD17   [8]  02 00 00 E9 7F FA 7F 04
  can0  0B0BB241   [8]  22 09 27 00 09 90 01 C0
  can0  0CF00417   [8]  FF FF FF D8 15 FF FF FF
  can0  0B0BB341   [8]  00 00 00 00 00 00 00 00
  can0  0B0BB241   [8]  22 09 27 00 09 90 01 C0
  can0  0CF00417   [8]  FF FF FF D3 15 FF FF FF
  can0  0CF00317   [8]  FF FF 20 FF FF FF FF FF
  can0  0B0BB241   [8]  12 09 27 00 09 90 01 C0
  can0  0B0BB341   [8]  00 00 00 00 00 00 00 00
  can0  0CF00417   [8]  FF FF FF D3 15 FF FF FF
  can0  0B0BB241   [8]  22 09 27 00 09 90 01 C0
  can0  0CF00417   [8]  FF FF FF D3 15 FF FF FF
  can0  0B0BB341   [8]  00 00 00 00 00 00 00 00
  can0  0CF00317   [8]  FF FF 20 FF FF FF FF FF
  can0  0B0BB241   [8]  12 09 27 00 09 90 01 C0
  can0  0B0BB541   [8]  01 01 00 00 00 00 00 00
  can0  0CF00417   [8]  FF FF FF D3 15 FF FF FF
  can0  18FFAC17   [8]  02 16 80 51 FF FF FF 00
  can0  18FEF117   [8]  F7 00 00 FF FF FF FF FF
  can0  18FEF217   [8]  93 00 FF FF FF FF FF FF
  can0  18FFAD17   [8]  03 FA 09 00 00 00 00 FF
  can0  0B0BB241   [8]  12 09 27 00 09 90 01 C0
  can0  0B0BB341   [8]  00 00 00 00 00 00 00 00
  can0  0CF00417   [8]  FF FF FF DC 15 FF FF FF
  can0  0B0BB241   [8]  22 09 27 00 09 90 01 C0
  can0  0CF00417   [8]  FF FF FF DC 15 FF FF FF
  can0  0B0BB341   [8]  00 00 00 00 00 00 00 00
  can0  0CF00317   [8]  FF FF 1F FF FF FF FF FF
  can0  0B0BB241   [8]  12 09 27 00 09 90 01 C0
  can0  0CF00417   [8]  FF FF FF E6 15 FF FF FF
  can0  0B0BB241   [8]  22 09 27 00 09 90 01 C0
  can0  0B0BB341   [8]  00 00 00 00 00 00 00 00
  can0  0CF00417   [8]  FF FF FF E1 15 FF FF FF
  can0  0CF00317   [8]  FF FF 1F FF FF FF FF FF
  can0  0B0BB241   [8]  22 09 27 00 09 90 01 C0
  can0  0B0BB541   [8]  01 01 00 00 00 00 00 00
  can0  0CF00417   [8]  FF FF FF E1 15 FF FF FF
  can0  0B0BB341   [8]  00 00 00 00 00 00 00 00
  can0  18FEF117   [8]  F7 00 00 FF FF FF FF FF
  can0  18FEF217   [8]  92 00 FF FF FF FF FF FF
  can0  18FFAC17   [8]  02 16 80 51 FF FF FF 00
  can0  18FFAD17   [8]  00 1F CA 00 00 18 0C 06
  can0  0B0BB241   [8]  12 09 27 00 09 90 01 C0
  can0  0CF00417   [8]  FF FF FF D8 15 FF FF FF
  can0  0B0BB241   [8]  22 09 27 00 09 90 01 C0
  can0  0B0BB341   [8]  00 00 00 00 00 00 00 00
  can0  0CF00417   [8]  FF FF FF D8 15 FF FF FF
  can0  0CF00317   [8]  FF FF 20 FF FF FF FF FF
  can0  0B0BB241   [8]  12 09 27 00 09 90 01 C0
  can0  0CF00417   [8]  FF FF FF D8 15 FF FF FF
  can0  0B0BB341   [8]  00 00 00 00 00 00 00 00
  can0  0B0BB241   [8]  15 09 27 00 09 90 01 C0
  can0  0CF00417   [8]  FF FF FF D3 15 FF FF FF
  can0  0CF00317   [8]  FF FF 20 FF FF FF FF FF
  can0  18FEE841   [8]  FF FF 00 00 FF FF F7 4E
  can0  0B0BB241   [8]  25 09 27 00 09 90 01 C0
  can0  0B0BB541   [8]  01 01 00 00 00 00 00 00
  can0  19FA0341   [8]  A1 FF 32 00 50 00 5A 00
  can0  0B0BB341   [8]  00 00 00 00 00 00 00 00
  can0  0CF00417   [8]  FF FF FF C9 15 FF FF FF
  can0  18FFAC17   [8]  02 16 80 51 FF FF FF 00
  can0  18FECA17   [8]  C3 FF FF FF FF FF FF FF
  can0  18FEE717   [8]  64 00 00 00 FF FF FF FF
  can0  18FEF117   [8]  F7 00 00 FF FF FF FF FF
  can0  18FEF217   [8]  93 00 FF FF FF FF FF FF
  can0  18FEF517   [8]  FF FF FF 80 25 FF FF FF
  can0  18FEFC17   [8]  FF 3D FF FF FF FF FF FF
  can0  18FFAD17   [8]  01 00 00 00 00 0A 02 22
  can0  0B0BB241   [8]  15 09 27 00 09 90 01 C0
  can0  0CF00417   [8]  FF FF FF C9 15 FF FF FF
  can0  0B0BB341   [8]  00 00 00 00 00 00 00 00
  can0  0B0BB241   [8]  25 09 27 00 09 90 01 C0
  can0  0CF00417   [8]  FF FF FF CE 15 FF FF FF
  can0  0CF00317   [8]  FF FF 20 FF FF FF FF FF
  can0  0B0BB241   [8]  25 09 27 00 09 90 01 C0
  can0  0B0BB341   [8]  00 00 00 00 00 00 00 00
  can0  0CF00417   [8]  FF FF FF CE 15 FF FF FF
  can0  0B0BB241   [8]  15 09 27 00 09 90 01 C0
  can0  0CF00417   [8]  FF FF FF E1 15 FF FF FF
  can0  0B0BB341   [8]  00 00 00 00 00 00 00 00
  can0  0CF00317   [8]  FF FF 1F FF FF FF FF FF
  can0  0B0BB241   [8]  25 09 27 00 09 90 01 C0
  can0  0B0BB541   [8]  01 01 00 00 00 00 00 00
  can0  0CF00417   [8]  FF FF FF E1 15 FF FF FF
  can0  18FFAC17   [8]  02 16 80 51 FF FF FF 00
  can0  18FEF117   [8]  F7 00 00 FF FF FF FF FF
  can0  18FEF217   [8]  95 00 FF FF FF FF FF FF
  can0  18FFAD17   [8]  02 00 00 E9 7F FA 7F 04
  can0  0B0BB241   [8]  15 09 27 00 09 90 01 C0
  can0  0B0BB341   [8]  00 00 00 00 00 00 00 00
  can0  0CF00417   [8]  FF FF FF E1 15 FF FF FF
  can0  0B0BB241   [8]  15 09 27 00 09 90 01 C0
  can0  0CF00417   [8]  FF FF FF DC 15 FF FF FF
  can0  0B0BB341   [8]  00 00 00 00 00 00 00 00
  can0  0CF00317   [8]  FF FF 20 FF FF FF FF FF
  can0  0B0BB241   [8]  25 09 27 00 09 90 01 C0
  can0  0CF00417   [8]  FF FF FF DC 15 FF FF FF
  can0  0B0BB241   [8]  15 09 27 00 09 90 01 C0
  can0  0B0BB441   [8]  01 01 06 0A 0A 6A 38 27
  can0  0B0BB341   [8]  00 00 00 00 00 00 00 00
  can0  0B0BB441   [8]  01 01 06 0A 0A 6A 38 27
  can0  0B0BB441   [8]  01 01 06 0A 0A 6A 38 27
  can0  0CF00417   [8]  FF FF FF DC 15 FF FF FF
  can0  0CF00317   [8]  FF FF 20 FF FF FF FF FF
  can0  0B0BB441   [8]  01 01 06 0A 0A 6A 38 27
  can0  0B0BB241   [8]  22 09 27 00 09 90 01 C0
  can0  0B0BB541   [8]  01 01 00 00 00 00 00 00
  can0  0B0BB441   [8]  01 01 06 0A 0A 6A 38 27
  can0  0B0BB441   [8]  01 01 06 0A 0A 6A 38 27
  can0  0CF00417   [8]  FF FF FF DC 15 FF FF FF
  can0  0B0BB341   [8]  00 00 00 00 00 00 00 00
  can0  0B0BB441   [8]  01 01 06 0A 0A 6A 38 27
  can0  0B0BB441   [8]  01 01 06 0A 0A 6A 38 27
  can0  18FEF117   [8]  F7 00 00 FF FF FF FF FF
  can0  18FEF217   [8]  93 00 FF FF FF FF FF FF
  can0  18FFAC17   [8]  02 16 80 51 FF FF FF 00
  can0  18FFAD17   [8]  03 FA 09 00 00 00 00 FF
  can0  0B0BB241   [8]  22 09 27 00 09 90 01 C0
  can0  0B0BB441   [8]  01 01 06 0A 0A 6A 38 27
  can0  0B0BB441   [8]  01 01 06 0A 0A 6A 38 27
  can0  0B0BB441   [8]  01 01 06 0A 0A 6A 38 27
  can0  18FEE641   [8]  98 02 03 0C 18 27 FF F9
  can0  18FEF341   [8]  A5 05 7E 79 EA DC E9 BC
  can0  19FF2941   [8]  AA 05 FF FF FF FF FF FF
  can0  0CF00417   [8]  FF FF FF DC 15 FF FF FF
  can0  19FF2941   [8]  AA 05 FF FF FF FF FF FF
  can0  0B0BB441   [8]  01 01 06 0A 0A 6A 38 27
  can0  0B0BB241   [8]  12 09 27 00 09 90 01 C0
  can0  18FEE641   [8]  98 02 03 0C 18 27 FF F9
  can0  18FEF341   [8]  A5 05 7E 79 EA DC E9 BC
  can0  0B0BB341   [8]  00 00 00 00 00 00 00 00
  can0  0B0BB441   [8]  01 01 06 0A 0A 6A 38 27
  can0  0CF00417   [8]  FF FF FF DC 15 FF FF FF
  can0  0B0BB441   [8]  01 01 06 0A 0A 6A 38 27
  can0  0B0BB441   [8]  01 01 06 0A 0A 6A 38 27
  can0  0CF00317   [8]  FF FF 1F FF FF FF FF FF
  can0  0B0BB241   [8]  22 09 27 00 09 90 01 C0
  can0  0B0BB441   [8]  01 01 06 0A 0A 6A 38 27
  can0  0B0BB441   [8]  01 01 06 0A 0A 6A 38 27
  can0  0B0BB441   [8]  01 01 06 0A 0A 6A 38 27
  can0  0CF00417   [8]  FF FF FF E1 15 FF FF FF
  can0  0B0BB341   [8]  00 00 00 00 00 00 00 00
  can0  0B0BB441   [8]  01 01 06 0A 0A 6A 38 27
  can0  0B0BB441   [8]  01 01 06 0A 0A 6A 38 27
  can0  0B0BB241   [8]  12 09 27 00 09 90 01 C0
  can0  0B0BB441   [8]  01 01 06 0A 0A 6A 38 27
  can0  0CF00417   [8]  FF FF FF F0 15 FF FF FF
  can0  0CF00317   [8]  FF FF 1F FF FF FF FF FF
  can0  0B0BB241   [8]  12 09 27 00 09 90 01 C0
  can0  0B0BB541   [8]  01 01 00 00 00 00 00 00
  can0  0B0BB341   [8]  00 00 00 00 00 00 00 00
  can0  0CF00417   [8]  FF FF FF F0 15 FF FF FF
  can0  18FFAC17   [8]  02 16 80 51 FF FF FF 00
  can0  18FEF117   [8]  F7 00 00 FF FF FF FF FF
  can0  18FEF217   [8]  93 00 FF FF FF FF FF FF
  can0  18FFAD17   [8]  00 20 CA 00 00 18 0C 06
  can0  0B0BB241   [8]  22 09 27 00 09 90 01 C0
  can0  0CF00417   [8]  FF FF FF EB 15 FF FF FF
  can0  0B0BB341   [8]  00 00 00 00 00 00 00 00
  can0  0B0BB241   [8]  12 09 27 00 09 90 01 C0
  can0  0CF00417   [8]  FF FF FF E6 15 FF FF FF
  can0  0CF00317   [8]  FF FF 1F FF FF FF FF FF
  can0  0B0BB241   [8]  22 09 27 00 09 90 01 C0
  can0  0B0BB341   [8]  00 00 00 00 00 00 00 00
  can0  0CF00417   [8]  FF FF FF E6 15 FF FF FF
  can0  0B0BB241   [8]  22 09 27 00 09 90 01 C0
  can0  0CF00417   [8]  FF FF FF DC 15 FF FF FF
  can0  0B0BB341   [8]  00 00 00 00 00 00 00 00
  can0  0CF00317   [8]  FF FF 20 FF FF FF FF FF
  can0  19FA0441   [8]  40 03 FF FF 00 FF FF FF
  can0  0B0BB241   [8]  12 09 27 00 09 90 01 C0
  can0  0B0BB541   [8]  01 01 00 00 00 00 00 00
  can0  0CF00417   [8]  FF FF FF DC 15 FF FF FF
  can0  18FFAC17   [8]  02 16 80 51 FF FF FF 00
  can0  18FEF117   [8]  F7 00 00 FF FF FF FF FF
  can0  18FEF217   [8]  91 00 FF FF FF FF FF FF
  can0  18FFAD17   [8]  01 00 00 00 00 0A 02 22
  can0  0B0BB241   [8]  22 09 27 00 09 90 01 C0
  can0  0B0BB341   [8]  00 00 00 00 00 00 00 00
  can0  0CF00417   [8]  FF FF FF EB 15 FF FF FF
  can0  0B0BB241   [8]  12 09 27 00 09 90 01 C0
  can0  0CF00417   [8]  FF FF FF EB 15 FF FF FF
  can0  0B0BB341   [8]  00 00 00 00 00 00 00 00
  can0  0CF00317   [8]  FF FF 1F FF FF FF FF FF
  can0  0B0BB241   [8]  12 09 27 00 09 90 01 C0
  can0  0CF00417   [8]  FF FF FF EB 15 FF FF FF
  can0  0B0BB241   [8]  22 09 27 00 09 90 01 C0
  can0  0B0BB341   [8]  00 00 00 00 00 00 00 00
  can0  0CF00417   [8]  FF FF FF E6 15 FF FF FF
  can0  0CF00317   [8]  FF FF 1F FF FF FF FF FF
  can0  18FEE841   [8]  FF FF 00 00 FF FF F7 4E
  can0  0B0BB241   [8]  23 09 27 00 09 90 01 C0
  can0  0B0BB541   [8]  01 01 00 00 00 00 00 00
  can0  0CF00417   [8]  FF FF FF E6 15 FF FF FF
  can0  0B0BB341   [8]  00 00 00 00 00 00 00 00
  can0  18FEF117   [8]  F7 00 00 FF FF FF FF FF
  can0  18FEF217   [8]  90 00 FF FF FF FF FF FF
  can0  18FFAC17   [8]  02 16 80 51 FF FF FF 00
  can0  18FFAD17   [8]  02 00 00 E9 7F FA 7F 04
  can0  0B0BB241   [8]  23 09 27 00 09 90 01 C0
  can0  0CF00417   [8]  FF FF FF F0 15 FF FF FF
  can0  0B0BB241   [8]  23 09 27 00 09 90 01 C0
  can0  0B0BB341   [8]  00 00 00 00 00 00 00 00
  can0  0CF00417   [8]  FF FF FF F4 15 FF FF FF
  can0  0CF00317   [8]  FF FF 1E FF FF FF FF FF
  can0  0B0BB241   [8]  23 09 27 00 09 90 01 C0
  can0  0CF00417   [8]  FF FF FF F4 15 FF FF FF
  can0  0B0BB341   [8]  00 00 00 00 00 00 00 00
  can0  0B0BB241   [8]  23 09 27 00 09 90 01 C0
  can0  0CF00417   [8]  FF FF FF F0 15 FF FF FF
  can0  0CF00317   [8]  FF FF 1F FF FF FF FF FF
  can0  0B0BB241   [8]  23 09 27 00 09 90 01 C0
  can0  0B0BB541   [8]  01 01 00 00 00 00 00 00
  can0  0B0BB341   [8]  00 00 00 00 00 00 00 00
  can0  0CF00417   [8]  FF FF FF E1 15 FF FF FF
  can0  18FFAC17   [8]  02 16 80 51 FF FF FF 00
  can0  18FEF117   [8]  F7 00 00 FF FF FF FF FF
  can0  18FEF217   [8]  90 00 FF FF FF FF FF FF
  can0  18FFAD17   [8]  03 FA 09 00 00 00 00 FF
  can0  0B0BB241   [8]  23 09 27 00 09 90 01 C0
  can0  0CF00417   [8]  FF FF FF D8 15 FF FF FF
  can0  0B0BB341   [8]  00 00 00 00 00 00 00 00
  can0  0B0BB241   [8]  23 09 27 00 09 90 01 C0
  can0  0CF00417   [8]  FF FF FF D8 15 FF FF FF
  can0  0CF00317   [8]  FF FF 20 FF FF FF FF FF
  can0  0B0BB241   [8]  23 09 27 00 09 90 01 C0
  can0  0B0BB341   [8]  00 00 00 00 00 00 00 00
  can0  0CF00417   [8]  FF FF FF C9 15 FF FF FF
  can0  0B0BB241   [8]  23 09 27 00 09 90 01 C0
  can0  0CF00417   [8]  FF FF FF C9 15 FF FF FF
  can0  0B0BB341   [8]  00 00 00 00 00 00 00 00
  can0  0CF00317   [8]  FF FF 20 FF FF FF FF FF
  can0  0B0BB241   [8]  23 09 27 00 09 90 01 C0
  can0  0B0BB541   [8]  01 01 00 00 00 00 00 00
  can0  0CF00417   [8]  FF FF FF C9 15 FF FF FF
  can0  18FFAC17   [8]  02 16 80 51 FF FF FF 00
  can0  18FEF117   [8]  F7 00 00 FF FF FF FF FF
  can0  18FEF217   [8]  92 00 FF FF FF FF FF FF
  can0  18FFAD17   [8]  00 21 CA 00 00 18 0C 06
  can0  0B0BB241   [8]  23 09 27 00 09 90 01 C0
  can0  0B0BB341   [8]  00 00 00 00 00 00 00 00
  can0  0CF00417   [8]  FF FF FF CE 15 FF FF FF
  can0  0B0BB241   [8]  13 09 27 00 09 90 01 C0
  can0  0CF00417   [8]  FF FF FF CE 15 FF FF FF
  can0  0B0BB341   [8]  00 00 00 00 00 00 00 00
  can0  0CF00317   [8]  FF FF 20 FF FF FF FF FF
  can0  0B0BB241   [8]  23 09 27 00 09 90 01 C0
  can0  0CF00417   [8]  FF FF FF CE 15 FF FF FF
  can0  0B0BB241   [8]  23 09 27 00 09 90 01 C0
  can0  0B0BB341   [8]  00 00 00 00 00 00 00 00
  can0  0CF00417   [8]  FF FF FF DC 15 FF FF FF
  can0  0CF00317   [8]  FF FF 20 FF FF FF FF FF
  can0  0B0BB241   [8]  13 09 27 00 09 90 01 C0
  can0  0B0BB541   [8]  01 01 00 00 00 00 00 00
  can0  0CF00417   [8]  FF FF FF D8 15 FF FF FF
  can0  0B0BB341   [8]  00 00 00 00 00 00 00 00
  can0  18FEF117   [8]  F7 00 00 FF FF FF FF FF
  can0  18FEF217   [8]  94 00 FF FF FF FF FF FF
  can0  18FFAC17   [8]  02 16 80 51 FF FF FF 00
  can0  18FFAD17   [8]  01 00 00 00 00 0A 02 23
  can0  0B0BB241   [8]  23 09 27 00 09 90 01 C0
  can0  0CF00417   [8]  FF FF FF D3 15 FF FF FF
  can0  0B0BB241   [8]  13 09 27 00 09 90 01 C0
  can0  0B0BB341   [8]  00 00 00 00 00 00 00 00
  can0  0CF00417   [8]  FF FF FF D3 15 FF FF FF
  can0  0CF00317   [8]  FF FF 20 FF FF FF FF FF
  can0  0B0BB241   [8]  13 09 27 00 09 90 01 C0
  can0  0CF00417   [8]  FF FF FF CE 15 FF FF FF
  can0  0B0BB341   [8]  00 00 00 00 00 00 00 00
  can0  0B0BB241   [8]  23 09 27 00 09 90 01 C0
  can0  0CF00417   [8]  FF FF FF D8 15 FF FF FF
  can0  0CF00317   [8]  FF FF 20 FF FF FF FF FF
  can0  0B0BB241   [8]  12 09 27 00 09 90 01 C0
  can0  0B0BB541   [8]  01 01 00 00 00 00 00 00
  can0  0B0BB341   [8]  00 00 00 00 00 00 00 00
  can0  0CF00417   [8]  FF FF FF D8 15 FF FF FF
  can0  18FFAC17   [8]  02 16 80 51 FF FF FF 00
  can0  18FEF117   [8]  F7 00 00 FF FF FF FF FF
  can0  18FEF217   [8]  93 00 FF FF FF FF FF FF
  can0  18FFAD17   [8]  02 00 00 E9 7F FA 7F 04
  can0  0B0BB241   [8]  22 09 27 00 09 90 01 C0
  can0  0CF00417   [8]  FF FF FF DC 15 FF FF FF
  can0  0B0BB341   [8]  00 00 00 00 00 00 00 00
  can0  0B0BB241   [8]  22 09 27 00 09 90 01 C0
  can0  0CF00417   [8]  FF FF FF F0 15 FF FF FF
  can0  0CF00317   [8]  FF FF 1F FF FF FF FF FF
  can0  0B0BB241   [8]  12 09 27 00 09 90 01 C0
  can0  0B0BB341   [8]  00 00 00 00 00 00 00 00
  can0  0CF00417   [8]  FF FF FF F0 15 FF FF FF
  can0  0B0BB241   [8]  22 09 27 00 09 90 01 C0
  can0  0CF00417   [8]  FF FF FF FE 15 FF FF FF
  can0  0B0BB341   [8]  00 00 00 00 00 00 00 00
  can0  0CF00317   [8]  FF FF 1E FF FF FF FF FF
  can0  18FEE841   [8]  FF FF 00 00 FF FF F7 4E
  can0  0B0BB241   [8]  12 09 27 00 09 90 01 C0
  can0  0B0BB541   [8]  01 01 00 00 00 00 00 00
  can0  19FA0341   [8]  A2 FF 32 00 50 00 5A 00
  can0  0CF00417   [8]  FF FF FF F4 15 FF FF FF
  can0  18FFAC17   [8]  02 16 80 51 FF FF FF 00
  can0  18FECA17   [8]  C3 FF FF FF FF FF FF FF
  can0  18FEE717   [8]  64 00 00 00 FF FF FF FF
  can0  18FEF117   [8]  F7 00 00 FF FF FF FF FF
  can0  18FEF217   [8]  93 00 FF FF FF FF FF FF
  can0  18FEF517   [8]  FF FF FF 80 25 FF FF FF
  can0  18FEFC17   [8]  FF 3D FF FF FF FF FF FF
  can0  18FFAD17   [8]  03 FA 09 00 00 00 00 FF
  can0  0B0BB241   [8]  12 09 27 00 09 90 01 C0
  can0  0B0BB341   [8]  00 00 00 00 00 00 00 00
  can0  0CF00417   [8]  FF FF FF EB 15 FF FF FF
  can0  0B0BB241   [8]  22 09 27 00 09 90 01 C0
  can0  0CF00417   [8]  FF FF FF EB 15 FF FF FF
  can0  0B0BB341   [8]  00 00 00 00 00 00 00 00
  can0  0CF00317   [8]  FF FF 1F FF FF FF FF FF
  can0  0B0BB241   [8]  12 09 27 00 09 90 01 C0
  can0  0CF00417   [8]  FF FF FF E6 15 FF FF FF
  can0  0B0BB241   [8]  22 09 27 00 09 90 01 C0
  can0  0B0BB341   [8]  00 00 00 00 00 00 00 00
  can0  0CF00417   [8]  FF FF FF DC 15 FF FF FF
  can0  0CF00317   [8]  FF FF 20 FF FF FF FF FF
  can0  0B0BB241   [8]  22 09 27 00 09 90 01 C0
  can0  0B0BB541   [8]  01 01 00 00 00 00 00 00
  can0  0CF00417   [8]  FF FF FF DC 15 FF FF FF
  can0  0B0BB341   [8]  00 00 00 00 00 00 00 00
  can0  18FEF117   [8]  F7 00 00 FF FF FF FF FF
  can0  18FEF217   [8]  90 00 FF FF FF FF FF FF
  can0  18FFAC17   [8]  02 16 80 51 FF FF FF 00
  can0  18FFAD17   [8]  00 22 CA 00 00 18 0C 06
  can0  0B0BB241   [8]  12 09 27 00 09 90 01 C0
  can0  0CF00417   [8]  FF FF FF D8 15 FF FF FF
  can0  0B0BB241   [8]  22 09 27 00 09 90 01 C0
  can0  0B0BB341   [8]  00 00 00 00 00 00 00 00
  can0  0CF00417   [8]  FF FF FF D8 15 FF FF FF
  can0  0CF00317   [8]  FF FF 20 FF FF FF FF FF
  can0  0B0BB241   [8]  12 09 27 00 09 90 01 C0
  can0  0CF00417   [8]  FF FF FF D8 15 FF FF FF
  can0  0B0BB341   [8]  00 00 00 00 00 00 00 00
  can0  0B0BB241   [8]  12 09 27 00 09 90 01 C0
  can0  0B0BB441   [8]  01 01 06 0A 0A 6A 38 27
  can0  0B0BB441   [8]  01 01 06 0A 0A 6A 38 27
  can0  0B0BB441   [8]  01 01 06 0A 0A 6A 38 27
  can0  0CF00417   [8]  FF FF FF D3 15 FF FF FF
  can0  0CF00317   [8]  FF FF 20 FF FF FF FF FF
  can0  0B0BB441   [8]  01 01 06 0A 0A 6A 38 27
  can0  0B0BB241   [8]  22 09 27 00 09 90 01 C0
  can0  0B0BB541   [8]  01 01 00 00 00 00 00 00
  can0  0B0BB341   [8]  00 00 00 00 00 00 00 00
  can0  0B0BB441   [8]  01 01 06 0A 0A 6A 38 27
  can0  0B0BB441   [8]  01 01 06 0A 0A 6A 38 27
  can0  0B0BB441   [8]  01 01 06 0A 0A 6A 38 27
  can0  0B0BB441   [8]  01 01 06 0A 0A 6A 38 27
  can0  0CF00417   [8]  FF FF FF D8 15 FF FF FF
  can0  18FEF117   [8]  F7 00 00 FF FF FF FF FF
  can0  18FEF217   [8]  93 00 FF FF FF FF FF FF
  can0  18FFAC17   [8]  02 16 80 51 FF FF FF 00
  can0  18FFAD17   [8]  01 00 00 00 00 0A 02 23
  can0  0B0BB241   [8]  12 09 27 00 09 90 01 C0
  can0  0B0BB441   [8]  01 01 06 0A 0A 6A 38 27
  can0  0B0BB441   [8]  01 01 06 0A 0A 6A 38 27
  can0  0CF00417   [8]  FF FF FF DC 15 FF FF FF
  can0  0B0BB341   [8]  00 00 00 00 00 00 00 00
  can0  19FF2941   [8]  AA 05 FF FF FF FF FF FF
  can0  0B0BB441   [8]  01 01 06 0A 0A 6A 38 27
  can0  0B0BB441   [8]  01 01 06 0A 0A 6A 38 27
  can0  18FEE641   [8]  9C 02 03 0C 18 27 FF F9
  can0  0B0BB241   [8]  22 09 27 00 09 90 01 C0
  can0  18FEE641   [8]  9C 02 03 0C 18 27 FF F9
  can0  18FEF341   [8]  A5 05 7E 79 EA DC E9 BC
  can0  18FEF341   [8]  A5 05 7E 79 EA DC E9 BC
  can0  19FF2941   [8]  AA 05 FF FF FF FF FF FF
  can0  0B0BB441   [8]  01 01 06 0A 0A 6A 38 27
  can0  0B0BB441   [8]  01 01 06 0A 0A 6A 38 27
  can0  0B0BB441   [8]  01 01 06 0A 0A 6A 38 27
  can0  0CF00417   [8]  FF FF FF DC 15 FF FF FF
  can0  0CF00317   [8]  FF FF 1F FF FF FF FF FF
  can0  0B0BB241   [8]  22 09 27 00 09 90 01 C0
  can0  0B0BB441   [8]  01 01 06 0A 0A 6A 38 27
  can0  0B0BB341   [8]  00 00 00 00 00 00 00 00
  can0  0B0BB441   [8]  01 01 06 0A 0A 6A 38 27
  can0  0B0BB441   [8]  01 01 06 0A 0A 6A 38 27
  can0  0CF00417   [8]  FF FF FF E6 15 FF FF FF
  can0  0B0BB441   [8]  01 01 06 0A 0A 6A 38 27
  can0  0B0BB441   [8]  01 01 06 0A 0A 6A 38 27
  can0  0B0BB241   [8]  12 09 27 00 09 90 01 C0
  can0  0B0BB441   [8]  01 01 06 0A 0A 6A 38 27
  can0  0CF00417   [8]  FF FF FF EB 15 FF FF FF
  can0  0B0BB341   [8]  00 00 00 00 00 00 00 00
  can0  0CF00317   [8]  FF FF 1F FF FF FF FF FF
  can0  0B0BB241   [8]  22 09 27 00 09 90 01 C0
  can0  0B0BB541   [8]  01 01 00 00 00 00 00 00
  can0  0CF00417   [8]  FF FF FF EB 15 FF FF FF
  can0  18FFAC17   [8]  02 16 80 51 FF FF FF 00
  can0  18FEF117   [8]  F7 00 00 FF FF FF FF FF
  can0  18FEF217   [8]  92 00 FF FF FF FF FF FF
  can0  18FFAD17   [8]  02 00 00 E9 7F FA 7F 04
  can0  0B0BB241   [8]  12 09 27 00 09 90 01 C0
  can0  0B0BB341   [8]  00 00 00 00 00 00 00 00
  can0  0CF00417   [8]  FF FF FF E6 15 FF FF FF
  can0  0B0BB241   [8]  12 09 27 00 09 90 01 C0
  can0  0CF00417   [8]  FF FF FF E1 15 FF FF FF
  can0  0B0BB341   [8]  00 00 00 00 00 00 00 00
  can0  0CF00317   [8]  FF FF 1F FF FF FF FF FF
  can0  0B0BB241   [8]  22 09 27 00 09 90 01 C0
  can0  0CF00417   [8]  FF FF FF E1 15 FF FF FF
  can0  0B0BB241   [8]  12 09 27 00 09 90 01 C0
  can0  0B0BB341   [8]  00 00 00 00 00 00 00 00
  can0  0CF00417   [8]  FF FF FF DC 15 FF FF FF
  can0  0CF00317   [8]  FF FF 20 FF FF FF FF FF
  can0  0B0BB241   [8]  22 09 27 00 09 90 01 C0
  can0  0B0BB541   [8]  01 01 00 00 00 00 00 00
  can0  0CF00417   [8]  FF FF FF D8 15 FF FF FF
  can0  0B0BB341   [8]  00 00 00 00 00 00 00 00
  can0  18FEF117   [8]  F7 00 00 FF FF FF FF FF
  can0  18FEF217   [8]  91 00 FF FF FF FF FF FF
  can0  18FFAC17   [8]  02 16 80 51 FF FF FF 00
  can0  18FFAD17   [8]  03 FA 09 00 00 00 00 FF
  can0  0B0BB241   [8]  22 09 27 00 09 90 01 C0
  can0  0CF00417   [8]  FF FF FF DC 15 FF FF FF
  can0  0B0BB241   [8]  12 09 27 00 09 90 01 C0
  can0  0B0BB341   [8]  00 00 00 00 00 00 00 00
  can0  0CF00417   [8]  FF FF FF DC 15 FF FF FF
  can0  0CF00317   [8]  FF FF 20 FF FF FF FF FF
  can0  0B0BB241   [8]  22 09 27 00 09 90 01 C0
  can0  0CF00417   [8]  FF FF FF DC 15 FF FF FF
  can0  0B0BB341   [8]  00 00 00 00 00 00 00 00
  can0  0B0BB241   [8]  12 09 27 00 09 90 01 C0
  can0  0CF00417   [8]  FF FF FF CE 15 FF FF FF
  can0  0CF00317   [8]  FF FF 20 FF FF FF FF FF
  can0  18FEE841   [8]  FF FF 00 00 FF FF F8 4E
  can0  0B0BB241   [8]  12 09 27 00 09 90 01 C0
  can0  0B0BB541   [8]  01 01 00 00 00 00 00 00
  can0  0B0BB341   [8]  00 00 00 00 00 00 00 00
  can0  0CF00417   [8]  FF FF FF CE 15 FF FF FF
  can0  18FFAC17   [8]  02 16 80 51 FF FF FF 00
  can0  18FEF117   [8]  F7 00 00 FF FF FF FF FF
  can0  18FEF217   [8]  92 00 FF FF FF FF FF FF
  can0  18FFAD17   [8]  00 23 CA 00 00 18 0C 06
  can0  0B0BB241   [8]  22 09 27 00 09 90 01 C0
  can0  0CF00417   [8]  FF FF FF C0 15 FF FF FF
  can0  0B0BB341   [8]  00 00 00 00 00 00 00 00
  can0  0B0BB241   [8]  12 09 27 00 09 90 01 C0
  can0  19FA0441   [8]  60 33 A3 FF 04 D4 5B 0E
  can0  0CF00417   [8]  FF FF FF C4 15 FF FF FF
  can0  0CF00317   [8]  FF FF 20 FF FF FF FF FF
  can0  0B0BB241   [8]  22 09 27 00 09 90 01 C0
  can0  0B0BB341   [8]  00 00 00 00 00 00 00 00
  can0  0CF00417   [8]  FF FF FF C4 15 FF FF FF
  can0  19FA0441   [8]  61 A9 1A 5C 12 FF FF FF
  can0  0B0BB241   [8]  22 09 27 00 09 90 01 C0
  can0  0CF00417   [8]  FF FF FF C0 15 FF FF FF
  can0  0B0BB341   [8]  00 00 00 00 00 00 00 00
  can0  0CF00317   [8]  FF FF 23 FF FF FF FF FF
  can0  0B0BB241   [8]  12 09 27 00 09 90 01 C0
  can0  0B0BB541   [8]  01 01 00 00 00 00 00 00
  can0  19FA0441   [8]  62 FF 02 DA 24 13 D8 72
  can0  0CF00417   [8]  FF FF FF BB 15 FF FF FF
  can0  18FFAC17   [8]  02 16 80 51 FF FF FF 00
  can0  18FEF117   [8]  F7 00 00 FF FF FF FF FF
  can0  18FEF217   [8]  96 00 FF FF FF FF FF FF
  can0  18FFAD17   [8]  01 00 00 00 00 0A 02 23
  can0  0B0BB241   [8]  22 09 27 00 09 90 01 C0
  can0  0B0BB341   [8]  00 00 00 00 00 00 00 00
  can0  0CF00417   [8]  FF FF FF BB 15 FF FF FF
  can0  0B0BB241   [8]  12 09 27 00 09 90 01 C0
  can0  19FA0441   [8]  63 30 11 FF FF FF FF 02
  can0  0CF00417   [8]  FF FF FF BB 15 FF FF FF
  can0  0B0BB341   [8]  00 00 00 00 00 00 00 00
  can0  0CF00317   [8]  FF FF 23 FF FF FF FF FF
  can0  0B0BB241   [8]  12 09 27 00 09 90 01 C0
  can0  19FA0441   [8]  64 DB 00 00 00 00 5C 12
  can0  0CF00417   [8]  FF FF FF C4 15 FF FF FF
  can0  0B0BB241   [8]  22 09 27 00 09 90 01 C0
  can0  0B0BB341   [8]  00 00 00 00 00 00 00 00
  can0  0CF00417   [8]  FF FF FF CE 15 FF FF FF
  can0  0CF00317   [8]  FF FF 20 FF FF FF FF FF
  can0  0B0BB241   [8]  12 09 27 00 09 90 01 C0
  can0  0B0BB541   [8]  01 01 00 00 00 00 00 00
  can0  19FA0441   [8]  65 FF FF FF FF 01 E2 00
  can0  0CF00417   [8]  FF FF FF CE 15 FF FF FF
  can0  0B0BB341   [8]  00 00 00 00 00 00 00 00
  can0  18FEF117   [8]  F7 00 00 FF FF FF FF FF
  can0  18FEF217   [8]  98 00 FF FF FF FF FF FF
  can0  18FFAC17   [8]  02 16 80 51 FF FF FF 00
  can0  18FFAD17   [8]  02 00 00 E9 7F FA 7F 04
  can0  0B0BB241   [8]  22 09 27 00 09 90 01 C0
  can0  0CF00417   [8]  FF FF FF D8 15 FF FF FF
  can0  19FA0441   [8]  66 00 00 00 C0 12 FF FF
  can0  0B0BB241   [8]  22 09 27 00 09 90 01 C0
  can0  0B0BB341   [8]  00 00 00 00 00 00 00 00
  can0  0CF00417   [8]  FF FF FF E1 15 FF FF FF
  can0  0CF00317   [8]  FF FF 1F FF FF FF FF FF
  can0  0B0BB241   [8]  12 09 27 00 09 90 01 C0
  can0  19FA0441   [8]  67 FF FF 01 FF FF FF FF
  can0  0CF00417   [8]  FF FF FF E1 15 FF FF FF
  can0  0B0BB341   [8]  00 00 00 00 00 00 00 00
  can0  0B0BB241   [8]  22 09 27 00 09 90 01 C0
  can0  0CF00417   [8]  FF FF FF E6 15 FF FF FF
  can0  0CF00317   [8]  FF FF 1E FF FF FF FF FF
  can0  0B0BB241   [8]  12 09 27 00 09 90 01 C0
  can0  0B0BB541   [8]  01 01 00 00 00 00 00 00
  can0  0B0BB341   [8]  00 00 00 00 00 00 00 00
  can0  0CF00417   [8]  FF FF FF F9 15 FF FF FF
  can0  18FFAC17   [8]  02 16 80 51 FF FF FF 00
  can0  18FEF117   [8]  F7 00 00 FF FF FF FF FF
  can0  18FEF217   [8]  95 00 FF FF FF FF FF FF
  can0  18FFAD17   [8]  03 FA 09 00 00 00 00 FF
  can0  0B0BB241   [8]  12 09 27 00 09 90 01 C0
  can0  0CF00417   [8]  FF FF FF F9 15 FF FF FF
  can0  0B0BB341   [8]  00 00 00 00 00 00 00 00
  can0  0B0BB241   [8]  22 09 27 00 09 90 01 C0
  can0  0CF00417   [8]  FF FF FF 0C 16 FF FF FF
  can0  0CF00317   [8]  FF FF 1D FF FF FF FF FF
  can0  0B0BB241   [8]  12 09 27 00 09 90 01 C0
  can0  0B0BB341   [8]  00 00 00 00 00 00 00 00
  can0  0CF00417   [8]  FF FF FF 0C 16 FF FF FF
  can0  0B0BB241   [8]  22 09 27 00 09 90 01 C0
  can0  0CF00417   [8]  FF FF FF 08 16 FF FF FF
  can0  0B0BB341   [8]  00 00 00 00 00 00 00 00
  can0  0CF00317   [8]  FF FF 1A FF FF FF FF FF
  can0  0B0BB241   [8]  22 09 27 00 09 90 01 C0
  can0  0B0BB541   [8]  01 01 00 00 00 00 00 00
  can0  0CF00417   [8]  FF FF FF 08 16 FF FF FF
  can0  18FFAC17   [8]  02 16 80 51 FF FF FF 00
  can0  18FEF117   [8]  F7 00 00 FF FF FF FF FF
  can0  18FEF217   [8]  90 00 FF FF FF FF FF FF
  can0  18FFAD17   [8]  00 23 CA 00 00 18 0C 06
  can0  0B0BB241   [8]  12 09 27 00 09 90 01 C0
  can0  0B0BB341   [8]  00 00 00 00 00 00 00 00
  can0  0CF00417   [8]  FF FF FF 08 16 FF FF FF
  can0  0B0BB241   [8]  22 09 27 00 09 90 01 C0
  can0  0CF00417   [8]  FF FF FF F4 15 FF FF FF
  can0  0B0BB341   [8]  00 00 00 00 00 00 00 00
  can0  0CF00317   [8]  FF FF 1E FF FF FF FF FF
  can0  0B0BB241   [8]  12 09 27 00 09 90 01 C0
  can0  0CF00417   [8]  FF FF FF F4 15 FF FF FF
  can0  0B0BB241   [8]  12 09 27 00 09 90 01 C0
  can0  0B0BB341   [8]  00 00 00 00 00 00 00 00
  can0  0CF00417   [8]  FF FF FF E6 15 FF FF FF
  can0  0CF00317   [8]  FF FF 1F FF FF FF FF FF
  can0  18FEE841   [8]  FF FF 00 00 FF FF F8 4E
  can0  0B0BB241   [8]  22 09 27 00 09 90 01 C0
  can0  0B0BB541   [8]  01 01 00 00 00 00 00 00
  can0  19FA0341   [8]  A3 FF 32 00 50 00 5A 00
  can0  0CF00417   [8]  FF FF FF E1 15 FF FF FF
  can0  0B0BB341   [8]  00 00 00 00 00 00 00 00
  can0  18FECA17   [8]  C3 FF FF FF FF FF FF FF
  can0  18FEE717   [8]  64 00 00 00 FF FF FF FF
  can0  18FEF117   [8]  F7 00 00 FF FF FF FF FF
  can0  18FEF217   [8]  8C 00 FF FF FF FF FF FF
  can0  18FEF517   [8]  FF FF FF 80 25 FF FF FF
  can0  18FEFC17   [8]  FF 3D FF FF FF FF FF FF
  can0  18FFAC17   [8]  02 16 80 51 FF FF FF 01
  can0  0B0BB241   [8]  12 09 27 00 09 90 01 C0
  can0  18FFAD17   [8]  01 00 00 00 00 0A 02 24
  can0  0CF00417   [8]  FF FF FF E1 15 FF FF FF
  can0  0B0BB241   [8]  22 09 27 00 09 90 01 C0
  can0  0B0BB341   [8]  00 00 00 00 00 00 00 00
  can0  0CF00417   [8]  FF FF FF E1 15 FF FF FF
  can0  0CF00317   [8]  FF FF 1F FF FF FF FF FF
  can0  0B0BB241   [8]  22 09 27 00 09 90 01 C0
  can0  0CF00417   [8]  FF FF FF EB 15 FF FF FF
  can0  0B0BB341   [8]  00 00 00 00 00 00 00 00
  can0  0B0BB241   [8]  12 09 27 00 09 90 01 C0
  can0  0CF00417   [8]  FF FF FF F0 15 FF FF FF
  can0  0CF00317   [8]  FF FF 1F FF FF FF FF FF
  can0  0B0BB241   [8]  22 09 27 00 09 90 01 C0
  can0  0B0BB541   [8]  01 01 00 00 00 00 00 00
  can0  0B0BB341   [8]  00 00 00 00 00 00 00 00
  can0  0CF00417   [8]  FF FF FF F0 15 FF FF FF
  can0  18FFAC17   [8]  02 16 80 51 FF FF FF 00
  can0  18FEF117   [8]  F7 00 00 FF FF FF FF FF
  can0  18FEF217   [8]  91 00 FF FF FF FF FF FF
  can0  18FFAD17   [8]  02 00 00 E9 7F FA 7F 04
  can0  0B0BB241   [8]  12 09 27 00 09 90 01 C0
  can0  0CF00417   [8]  FF FF FF F0 15 FF FF FF
  can0  0B0BB341   [8]  00 00 00 00 00 00 00 00
  can0  0B0BB241   [8]  12 09 27 00 09 90 01 C0
  can0  0CF00417   [8]  FF FF FF EB 15 FF FF FF
  can0  0CF00317   [8]  FF FF 1F FF FF FF FF FF
  can0  0B0BB241   [8]  22 09 27 00 09 90 01 C0
  can0  0B0BB341   [8]  00 00 00 00 00 00 00 00
  can0  0CF00417   [8]  FF FF FF EB 15 FF FF FF
  can0  0B0BB241   [8]  12 09 27 00 09 90 01 C0
  can0  0B0BB441   [8]  01 01 06 0A 0A 6A 38 27
  can0  0B0BB441   [8]  01 01 06 0A 0A 6A 38 27
  can0  0B0BB441   [8]  01 01 06 0A 0A 6A 38 27
  can0  0CF00417   [8]  FF FF FF D8 15 FF FF FF
  can0  0B0BB341   [8]  00 00 00 00 00 00 00 00
  can0  0CF00317   [8]  FF FF 20 FF FF FF FF FF
  can0  0B0BB441   [8]  01 01 06 0A 0A 6A 38 27
  can0  0B0BB241   [8]  22 09 27 00 09 90 01 C0
  can0  0B0BB541   [8]  01 01 00 00 00 00 00 00
  can0  0B0BB441   [8]  01 01 06 0A 0A 6A 38 27
  can0  0B0BB441   [8]  01 01 06 0A 0A 6A 38 27
  can0  0B0BB441   [8]  01 01 06 0A 0A 6A 38 27
  can0  0CF00417   [8]  FF FF FF C4 15 FF FF FF
  can0  18FFAC17   [8]  02 16 80 51 FF FF FF 00
  can0  18FEF117   [8]  F7 00 00 FF FF FF FF FF
  can0  18FEF217   [8]  8F 00 FF FF FF FF FF FF
  can0  18FFAD17   [8]  03 FA 09 00 00 00 00 FF
  can0  0B0BB241   [8]  22 09 27 00 09 90 01 C0
  can0  0B0BB441   [8]  01 01 06 0A 0A 6A 38 27
  can0  0B0BB441   [8]  01 01 06 0A 0A 6A 38 27
  can0  0B0BB341   [8]  00 00 00 00 00 00 00 00
  can0  0B0BB441   [8]  01 01 06 0A 0A 6A 38 27
  can0  0CF00417   [8]  FF FF FF AC 15 FF FF FF
  can0  19FF2941   [8]  AA 05 FF FF FF FF FF FF
  can0  0B0BB441   [8]  01 01 06 0A 0A 6A 38 27
  can0  18FEE641   [8]  A0 02 03 0C 18 27 FF F9
  can0  18FEF341   [8]  A5 05 7E 79 EA DC E9 BC
  can0  0B0BB241   [8]  12 09 27 00 09 90 01 C0
  can0  19FF2941   [8]  AA 05 FF FF FF FF FF FF
  can0  0B0BB441   [8]  01 01 06 0A 0A 6A 38 27
  can0  0B0BB441   [8]  01 01 06 0A 0A 6A 38 27
